
**** 01/10/23 15:45:03 ******* PSpice 17.4.0 (Nov 2018) ******* ID# 0 ********

 ** Profile: "SCHEMATIC1-Stage1_AMP_test"  [ c:\cadence\my projects\lab_analogcad_miniproject\lab_analogcad_miniproject-pspicefiles\s


 ****     CIRCUIT DESCRIPTION


******************************************************************************




** Creating circuit file "Stage1_AMP_test.cir" 
** WARNING: THIS AUTOMATICALLY GENERATED FILE MAY BE OVERWRITTEN BY SUBSEQUENT SIMULATIONS

*Libraries: 
* Profile Libraries :
* Local Libraries :
* From [PSPICE NETLIST] section of C:\Users\sixsi\AppData\Roaming\SPB_Data\cdssetup\OrCAD_PSpice\17.4.0\PSpice.ini file:
.lib "nom.lib" 

*Analysis directives: 
.TRAN  0 10m 0 1u 
.OPTIONS ADVCONV
.PROBE64 V(alias(*)) I(alias(*)) W(alias(*)) D(alias(*)) NOISE(alias(*)) 
.INC "..\SCHEMATIC1.net" 



**** INCLUDING SCHEMATIC1.net ****
* source LAB_ANALOGCAD_MINIPROJECT
Q_Q1         VCC1 N00267 N08141 Q2N3904
Q_Q2         N00212 N00226 N08137 Q2N3904
R_R1         N00212 VCC1  10k TC=0,0 
C_C1         N00212 N00552  2.2u  TC=0,0 
C_C2         N29588 N00267  2.2u  TC=0,0 
R_R2         N00267 VCC1  390k TC=0,0 
R_R3         0 N00267  390k TC=0,0 
R_R4         N00226 VCC1  390k TC=0,0 
R_R5         0 N00226  390k TC=0,0 
V_V2         N00504 0  AC 8m
+SIN 0 10m 1k 0 0 0
C_C3         N00226 0  2.2u  TC=0,0 
V_V3         VCC1 0 12V
R_R10         IDIFF N08137  390 TC=0,0 
R_R11         N08141 IDIFF  390 TC=0,0 
X_M1         N08548 N00552 N09928 BS170/PLP
R_R12         N08548 VCC1  6.8k TC=0,0 
R_R14         N00552 VCC1  120k TC=0,0 
R_R15         0 N00552  91k TC=0,0 
C_C4         N08548 N10788  2.2u  TC=0,0 
R_R17         0 N09928  3.9k TC=0,0 
R_R19         N11122 VCC1  1k TC=0,0 
C_C6         N11122 N11160  10u  TC=0,0 
R_R20         0 N10788  220k TC=0,0 
R_R18         N10788 VCC1  200k TC=0,0 
X_M2         N11122 N10788 N23193 BS170/PLP
R_R22         0 N11160  1k TC=0,0 
Q_Q3         IDIFF N14931 0 Q2N3904
Q_Q4         N14931 N14931 0 Q2N3904
R_R24         N14931 VCC1  39k TC=0,0 
R_R25         0 N23193  1k TC=0,0 
C_C7         0 N23193  1u  TC=0,0 
C_C5         0 N09928  1u  TC=0,0 
R_R26         0 N29588  50 TC=0,0 
R_R27         N29588 N00504  50 TC=0,0 

**** RESUMING Stage1_AMP_test.cir ****
.END

**** 01/10/23 15:45:03 ******* PSpice 17.4.0 (Nov 2018) ******* ID# 0 ********

 ** Profile: "SCHEMATIC1-Stage1_AMP_test"  [ c:\cadence\my projects\lab_analogcad_miniproject\lab_analogcad_miniproject-pspicefiles\s


 ****     Diode MODEL PARAMETERS


******************************************************************************




               X_M1.Dbody      X_M2.Dbody      
          IS  125.000000E-15  125.000000E-15 
           N    1.023           1.023        
         IKF   18.01           18.01         
          BV   60              60            
         IBV   10.000000E-06   10.000000E-06 
          RS    1.281           1.281        
          TT  161.600000E-09  161.600000E-09 
         CJO   46.300000E-12   46.300000E-12 
          VJ     .4519           .4519       
           M     .3423           .3423       


**** 01/10/23 15:45:03 ******* PSpice 17.4.0 (Nov 2018) ******* ID# 0 ********

 ** Profile: "SCHEMATIC1-Stage1_AMP_test"  [ c:\cadence\my projects\lab_analogcad_miniproject\lab_analogcad_miniproject-pspicefiles\s


 ****     BJT MODEL PARAMETERS


******************************************************************************




               Q2N3904         
               NPN             
       LEVEL    1            
          IS    6.734000E-15 
          BF  416.4          
          NF    1            
         VAF   74.03         
         IKF     .06678      
         ISE    6.734000E-15 
          NE    1.259        
          BR     .7371       
          NR    1            
         ISS    0            
          RB   10            
          RE    0            
          RC    1            
         CJE    4.493000E-12 
         VJE     .75         
         MJE     .2593       
         CJC    3.638000E-12 
         VJC     .75         
         MJC     .3085       
        XCJC    1            
         CJS    0            
         VJS     .75         
          TF  301.200000E-12 
         XTF    2            
         VTF    4            
         ITF     .4          
          TR  239.500000E-09 
         XTB    1.5          
          KF    0            
          AF    1            
          CN    2.42         
           D     .87         


**** 01/10/23 15:45:03 ******* PSpice 17.4.0 (Nov 2018) ******* ID# 0 ********

 ** Profile: "SCHEMATIC1-Stage1_AMP_test"  [ c:\cadence\my projects\lab_analogcad_miniproject\lab_analogcad_miniproject-pspicefiles\s


 ****     MOSFET MODEL PARAMETERS


******************************************************************************




               X_M1.MOST1      X_M1.MOST2      X_M2.MOST1      X_M2.MOST2      
               NMOS            NMOS            NMOS            NMOS            
       LEVEL    3               1               3               1            
           L    2.000000E-06    2.000000E-06    2.000000E-06    2.000000E-06 
           W    9.700000E-03    9.700000E-03    9.700000E-03    9.700000E-03 
         VTO    2              -4.73            2              -4.73         
          KP   20.780000E-06   20.780000E-06   20.780000E-06   20.780000E-06 
       GAMMA    0               0               0               0            
         PHI     .6              .6              .6              .6          
      LAMBDA    0               0               0               0            
          RD    1.186                           1.186                        
          RS     .02             .02             .02             .02         
          IS   10.000000E-15   10.000000E-15   10.000000E-15   10.000000E-15 
          JS    0               0               0               0            
          PB     .8              .8              .8              .8          
        PBSW     .8              .8              .8              .8          
          CJ    0               0               0               0            
        CJSW    0               0               0               0            
        CGSO    0               0               0               0            
        CGDO    0               0               0               0            
        CGBO    0               0               0               0            
         TOX  100.000000E-09    0             100.000000E-09    0            
          XJ    0               0               0               0            
       UCRIT   10.000000E+03   10.000000E+03   10.000000E+03   10.000000E+03 
      DIOMOD    1               1               1               1            
         VFB    0               0               0               0            
        LETA    0               0               0               0            
        WETA    0               0               0               0            
          U0    0               0               0               0            
        TEMP    0               0               0               0            
         VDD    5               5               5               5            
       XPART    0               0               0               0            


**** 01/10/23 15:45:03 ******* PSpice 17.4.0 (Nov 2018) ******* ID# 0 ********

 ** Profile: "SCHEMATIC1-Stage1_AMP_test"  [ c:\cadence\my projects\lab_analogcad_miniproject\lab_analogcad_miniproject-pspicefiles\s


 ****     INITIAL TRANSIENT SOLUTION       TEMPERATURE =   27.000 DEG C


******************************************************************************



 NODE   VOLTAGE     NODE   VOLTAGE     NODE   VOLTAGE     NODE   VOLTAGE


( VCC1)   12.0000  (IDIFF)    5.0546  (N00212)   10.5080 (N00226)    5.7279     

(N00267)    5.7287 (N00504)    0.0000 (N00552)    5.1754 (N08137)    5.1133     

(N08141)    5.1142 (N08548)    6.6807 (N09928)    3.0507 (N10788)    6.2857     

(N11122)    7.9962 (N11160)    0.0000 (N14931)     .6331 (N23193)    4.0038     

(N29588)    0.0000 (X_M1.4)    6.6807 (X_M2.4)    7.9962 




    VOLTAGE SOURCE CURRENTS
    NAME         CURRENT

    V_V2         0.000E+00
    V_V3        -5.496E-03

    TOTAL POWER DISSIPATION   6.59E-02  WATTS



          JOB CONCLUDED

**** 01/10/23 15:45:03 ******* PSpice 17.4.0 (Nov 2018) ******* ID# 0 ********

 ** Profile: "SCHEMATIC1-Stage1_AMP_test"  [ c:\cadence\my projects\lab_analogcad_miniproject\lab_analogcad_miniproject-pspicefiles\s


 ****     JOB STATISTICS SUMMARY


******************************************************************************



  License check-out time            =        7.48
  Total job time (using Solver 1)   =        1.36
