
**** 03/03/24 14:12:43 ******* PSpice 17.4.0 (Nov 2018) ******* ID# 0 ********

 ** Profile: "SCHEMATIC2-freq_max"  [ d:\orcad projects\lab10comm\lab10comm-PSpiceFiles\SCHEMATIC2\freq_max.sim ] 


 ****     CIRCUIT DESCRIPTION


******************************************************************************




** Creating circuit file "freq_max.cir" 
** WARNING: THIS AUTOMATICALLY GENERATED FILE MAY BE OVERWRITTEN BY SUBSEQUENT SIMULATIONS

*Libraries: 
* Profile Libraries :
* Local Libraries :
* From [PSPICE NETLIST] section of C:\Users\sixsi\AppData\Roaming\SPB_Data\cdssetup\OrCAD_PSpice\17.4.0\PSpice.ini file:
.lib "nom.lib" 

*Analysis directives: 
.AC LIN 40 350 1000
.OPTIONS ADVCONV
.PROBE64 V(alias(*)) I(alias(*)) W(alias(*)) D(alias(*)) NOISE(alias(*)) 
.INC "..\SCHEMATIC2.net" 



**** INCLUDING SCHEMATIC2.net ****
* source LAB10COMM
R_R18         N10409 N10541  33k TC=0,0 
R_R17         AMPLIFIED N10409  33k TC=0,0 
C_C3         N10541 0  10n  TC=0,0 
R_R19         0 VOUT  1Meg TC=0,0 
V_V4         0 NEG 10V
R_R20         N10561 AMPLIFIED  10k TC=0,0 
V_V3         POS 0 10V
R_R15         PWM N10561  10k TC=0,0 
V_V1         SAWTOOTH 0  
+PULSE -4 0 0 199.9u 1n 199.9u 200u
V_V2         VM 0  AC 1
+SIN -2 1 350 0 0 0
C_C4         N10409 VOUT  10n  TC=0,0 
X_U1B         VM SAWTOOTH POS 0 PWM LM324
X_U2A         0 N10561 POS NEG AMPLIFIED LM324
X_U2B         N10541 VOUT POS NEG VOUT LM324

**** RESUMING freq_max.cir ****
.END

**** 03/03/24 14:12:43 ******* PSpice 17.4.0 (Nov 2018) ******* ID# 0 ********

 ** Profile: "SCHEMATIC2-freq_max"  [ d:\orcad projects\lab10comm\lab10comm-PSpiceFiles\SCHEMATIC2\freq_max.sim ] 


 ****     Diode MODEL PARAMETERS


******************************************************************************




               X_U1B.dx        X_U1B.dy        X_U2A.dx        X_U2A.dy        
          IS  800.000000E-18  800.000000E-18  800.000000E-18  800.000000E-18 
          RS    1               1.000000E-03    1               1.000000E-03 
         CJO                   10.000000E-12                   10.000000E-12 


               X_U2B.dx        X_U2B.dy        
          IS  800.000000E-18  800.000000E-18 
          RS    1               1.000000E-03 
         CJO                   10.000000E-12 


**** 03/03/24 14:12:43 ******* PSpice 17.4.0 (Nov 2018) ******* ID# 0 ********

 ** Profile: "SCHEMATIC2-freq_max"  [ d:\orcad projects\lab10comm\lab10comm-PSpiceFiles\SCHEMATIC2\freq_max.sim ] 


 ****     BJT MODEL PARAMETERS


******************************************************************************




               X_U1B.qx        X_U2A.qx        X_U2B.qx        
               PNP             PNP             PNP             
       LEVEL    1               1               1            
          IS  800.000000E-18  800.000000E-18  800.000000E-18 
          BF  166.7           166.7           166.7          
          NF    1               1               1            
          BR    1               1               1            
          NR    1               1               1            
         ISS    0               0               0            
          RE    0               0               0            
          RC    0               0               0            
         CJE    0               0               0            
         VJE     .75             .75             .75         
         CJC    0               0               0            
         VJC     .75             .75             .75         
         MJC     .33             .33             .33         
        XCJC    1               1               1            
         CJS    0               0               0            
         VJS     .75             .75             .75         
          KF    0               0               0            
          AF    1               1               1            
          CN    2.2             2.2             2.2          
           D     .52             .52             .52         


**** 03/03/24 14:12:43 ******* PSpice 17.4.0 (Nov 2018) ******* ID# 0 ********

 ** Profile: "SCHEMATIC2-freq_max"  [ d:\orcad projects\lab10comm\lab10comm-PSpiceFiles\SCHEMATIC2\freq_max.sim ] 


 ****     Current Controlled Switch MODEL PARAMETERS


******************************************************************************




               X_U1B.sw2       X_U1B.sw1       X_U1B.sw3       X_U1B.sw4       
         RON    1               1               1               1            
        ROFF   10.000000E+06   10.000000E+06   10.000000E+06   10.000000E+06 
         ION    0              -1.000000E-06   -1.000000E-06    0            
        IOFF   -1.000000E-06    0               0              -1.000000E-06 


               X_U2A.sw2       X_U2A.sw1       X_U2A.sw3       X_U2A.sw4       
         RON    1               1               1               1            
        ROFF   10.000000E+06   10.000000E+06   10.000000E+06   10.000000E+06 
         ION    0              -1.000000E-06   -1.000000E-06    0            
        IOFF   -1.000000E-06    0               0              -1.000000E-06 


               X_U2B.sw2       X_U2B.sw1       X_U2B.sw3       X_U2B.sw4       
         RON    1               1               1               1            
        ROFF   10.000000E+06   10.000000E+06   10.000000E+06   10.000000E+06 
         ION    0              -1.000000E-06   -1.000000E-06    0            
        IOFF   -1.000000E-06    0               0              -1.000000E-06 


WARNING(ORPSIM-15452): Pulse Period < (Rise Time + Fall Time + Pulse Width) for V_V1.

WARNING(ORPSIM-15452): Pulse Period < (Rise Time + Fall Time + Pulse Width) for V_V1.

**** 03/03/24 14:12:43 ******* PSpice 17.4.0 (Nov 2018) ******* ID# 0 ********

 ** Profile: "SCHEMATIC2-freq_max"  [ d:\orcad projects\lab10comm\lab10comm-PSpiceFiles\SCHEMATIC2\freq_max.sim ] 


 ****     SMALL SIGNAL BIAS SOLUTION       TEMPERATURE =   27.000 DEG C


******************************************************************************



 NODE   VOLTAGE     NODE   VOLTAGE     NODE   VOLTAGE     NODE   VOLTAGE


(   VM)   -2.0000  (  NEG)  -10.0000  (  POS)   10.0000  (  PWM)     .0057      

( VOUT)    -.0038  (N10409)    -.0050 (N10541)    -.0036 (N10561)-192.4E-06     

(X_U1B.6)   36.7780                   (X_U1B.7)   -2.0291                       

(X_U1B.8)   -2.0291                   (X_U1B.9)    0.0000                       

(X_U1B.a)     .0407                   (X_U1B.b)     .0407                       

(X_U2A.6) 1.237E-06                   (X_U2A.7)    -.0065                       

(X_U2A.8)    -.0065                   (X_U2A.9)    0.0000                       

(X_U2A.a)     .0028                   (X_U2A.b)   -9.9972                       

(X_U2B.6) 707.3E-09                   (X_U2B.7)    -.0038                       

(X_U2B.8)    -.0038                   (X_U2B.9)    0.0000                       

(X_U2B.a)   10.0000                   (X_U2B.b)-1.194E-06                       

(SAWTOOTH)   -4.0000                  (X_U1B.10)   -3.0217                      

(X_U1B.11)   -3.2868                  (X_U1B.12)   -1.3332                      

(X_U1B.13)   -3.2825                  (X_U1B.14)   -2.7899                      

(X_U1B.53)    8.5000                  (X_U1B.54)     .8220                      

(X_U1B.90)  -40.6960                  (X_U1B.91)   40.0000                      

(X_U1B.92)  -40.0000                  (X_U1B.99)    5.0000                      

(X_U2A.10)     .6076                  (X_U2A.11)   -9.9602                      

(X_U2A.12)   -9.9604                  (X_U2A.13)     .5937                      

(X_U2A.14)     .5937                  (X_U2A.53)    8.5000                      

(X_U2A.54)   -9.1780                  (X_U2A.90)-676.7E-06                      

(X_U2A.91)   40.0000                  (X_U2A.92)  -40.0000                      

(X_U2A.99)    0.0000                  (X_U2B.10)     .6040                      

(X_U2B.11)   -9.9602                  (X_U2B.12)   -9.9604                      

(X_U2B.13)     .5901                  (X_U2B.14)     .5902                      

(X_U2B.53)    8.5000                  (X_U2B.54)   -9.1780                      

(X_U2B.90)-48.70E-06                  (X_U2B.91)   40.0000                      

(X_U2B.92)  -40.0000                  (X_U2B.99)    0.0000                      

(AMPLIFIED)    -.0065                 




    VOLTAGE SOURCE CURRENTS
    NAME         CURRENT

    V_V4        -4.489E-03
    V_V3        -5.605E-03
    V_V1         7.609E-04
    V_V2         1.257E-04
    X_U1B.vb     3.678E-04
    X_U1B.vc     8.495E-12
    X_U1B.ve    -4.070E-02
    X_U1B.vlim  -4.070E-02
    X_U1B.vlp   -8.070E-11
    X_U1B.vln    3.882E-04
    X_U2A.vb     1.237E-11
    X_U2A.vc     8.507E-12
    X_U2A.ve     1.043E-11
    X_U2A.vlim  -6.767E-07
    X_U2A.vlp   -4.000E-11
    X_U2A.vln   -4.000E-11
    X_U2B.vb     7.073E-12
    X_U2B.vc     8.505E-12
    X_U2B.ve     1.043E-11
    X_U2B.vlim  -4.870E-08
    X_U2B.vlp   -4.000E-11
    X_U2B.vln   -4.000E-11

    TOTAL POWER DISSIPATION   1.22E-01  WATTS



          JOB CONCLUDED

**** 03/03/24 14:12:43 ******* PSpice 17.4.0 (Nov 2018) ******* ID# 0 ********

 ** Profile: "SCHEMATIC2-freq_max"  [ d:\orcad projects\lab10comm\lab10comm-PSpiceFiles\SCHEMATIC2\freq_max.sim ] 


 ****     JOB STATISTICS SUMMARY


******************************************************************************



  Total job time (using Solver 1)   =         .31
