
**** 10/18/22 13:05:22 ******* PSpice 17.4.0 (Nov 2018) ******* ID# 0 ********

 ** Profile: "SCHEMATIC1-original_values_time"  [ d:\orcad projects\digital_logic_probe_v5\digital_logic_probe_v5-PSpiceFiles\SCHEMAT


 ****     CIRCUIT DESCRIPTION


******************************************************************************




** Creating circuit file "original_values_time.cir" 
** WARNING: THIS AUTOMATICALLY GENERATED FILE MAY BE OVERWRITTEN BY SUBSEQUENT SIMULATIONS

*Libraries: 
* Profile Libraries :
* Local Libraries :
* From [PSPICE NETLIST] section of C:\Users\sixsi\AppData\Roaming\SPB_Data\cdssetup\OrCAD_PSpice\17.4.0\PSpice.ini file:
.lib "nom.lib" 

*Analysis directives: 
.TRAN  0 1000ns 0 
.OPTIONS ADVCONV
.PROBE64 V(alias(*)) I(alias(*)) W(alias(*)) D(alias(*)) NOISE(alias(*)) 
.INC "..\SCHEMATIC1.net" 



**** INCLUDING SCHEMATIC1.net ****
* source DIGITAL_LOGIC_PROBE_V5
R_R1         N00653 VDD  2.2Meg TC=0,0 
R_R2         N00644 N00653  680k TC=0,0 
R_R3         0 N00644  560k TC=0,0 
R_R4         N01455 N02893  820 TC=0,0 
R_R5         N01625 N00751  820 TC=0,0 
R_R6         N01477 N02561  820 TC=0,0 
R_R7         N01542 VDD  2.2Meg TC=0,0 
R_R8         0 N01689  220k TC=0,0 
C_C1         N00644 N00653  100p  TC=0,0 
C_C2         N01542 N01477  100p  TC=0,0 
C_C3         N01685 N01689  100n  TC=0,0 
R_R9         N02065 N00644  1k TC=0,0 
D_D2         VDD N02893 LS_3336-TYP 
D_D3         VDD N02561 LT_3333-TYP 
D_D4         VDD N00751 LY_3336-TYP 
X_U1A         N01689 N01625 $G_CD4000_VDD $G_CD4000_VSS CD4049UB PARAMS:
+ IO_LEVEL=0 MNTYMXDLY=0
X_U1B         N01542 N01685 $G_CD4000_VDD $G_CD4000_VSS CD4049UB PARAMS:
+ IO_LEVEL=0 MNTYMXDLY=0
X_U1C         N00644 N01477 $G_CD4000_VDD $G_CD4000_VSS CD4049UB PARAMS:
+ IO_LEVEL=0 MNTYMXDLY=0
X_U1E         N00653 N01451 $G_CD4000_VDD $G_CD4000_VSS CD4049UB PARAMS:
+ IO_LEVEL=0 MNTYMXDLY=0
X_U1F         N01451 N01455 $G_CD4000_VDD $G_CD4000_VSS CD4049UB PARAMS:
+ IO_LEVEL=0 MNTYMXDLY=0
D_D5         N01542 N01625 D1N4001 
V_V1         VDD 0 5.44V
V_Vin         N02065 0 5v

**** RESUMING original_values_time.cir ****
.END


**** Generated AtoD and DtoA Interfaces ****

*
* Analog/Digital interface for node N00653
*
* Moving X_U1E.U1:IN1 from analog node N00653 to new digital node N00653$AtoD
X$N00653_AtoD1
+ N00653
+ N00653$AtoD
+ $G_CD4000_VDD
+ $G_CD4000_VSS
+ AtoD_4000UB
+       PARAMS: CAPACITANCE=   0     
*
* Analog/Digital interface for node N00644
*
* Moving X_U1C.U1:IN1 from analog node N00644 to new digital node N00644$AtoD
X$N00644_AtoD1
+ N00644
+ N00644$AtoD
+ $G_CD4000_VDD
+ $G_CD4000_VSS
+ AtoD_4000UB
+       PARAMS: CAPACITANCE=   0     
*
* Analog/Digital interface for node N01455
*
* Moving X_U1F.U1:OUT1 from analog node N01455 to new digital node N01455$DtoA
X$N01455_DtoA1
+ N01455$DtoA
+ N01455
+ $G_CD4000_VDD
+ $G_CD4000_VSS
+ DtoA_4000UB
+       PARAMS: DRVH= 721    DRVL= 721    CAPACITANCE=   0     
*
* Analog/Digital interface for node N01625
*
* Moving X_U1A.U1:OUT1 from analog node N01625 to new digital node N01625$DtoA
X$N01625_DtoA1
+ N01625$DtoA
+ N01625
+ $G_CD4000_VDD
+ $G_CD4000_VSS
+ DtoA_4000UB
+       PARAMS: DRVH= 721    DRVL= 721    CAPACITANCE=   0     
*
* Analog/Digital interface for node N01477
*
* Moving X_U1C.U1:OUT1 from analog node N01477 to new digital node N01477$DtoA
X$N01477_DtoA1
+ N01477$DtoA
+ N01477
+ $G_CD4000_VDD
+ $G_CD4000_VSS
+ DtoA_4000UB
+       PARAMS: DRVH= 721    DRVL= 721    CAPACITANCE=   0     
*
* Analog/Digital interface for node N01542
*
* Moving X_U1B.U1:IN1 from analog node N01542 to new digital node N01542$AtoD
X$N01542_AtoD1
+ N01542
+ N01542$AtoD
+ $G_CD4000_VDD
+ $G_CD4000_VSS
+ AtoD_4000UB
+       PARAMS: CAPACITANCE=   0     
*
* Analog/Digital interface for node N01689
*
* Moving X_U1A.U1:IN1 from analog node N01689 to new digital node N01689$AtoD
X$N01689_AtoD1
+ N01689
+ N01689$AtoD
+ $G_CD4000_VDD
+ $G_CD4000_VSS
+ AtoD_4000UB
+       PARAMS: CAPACITANCE=   0     
*
* Analog/Digital interface for node N01685
*
* Moving X_U1B.U1:OUT1 from analog node N01685 to new digital node N01685$DtoA
X$N01685_DtoA1
+ N01685$DtoA
+ N01685
+ $G_CD4000_VDD
+ $G_CD4000_VSS
+ DtoA_4000UB
+       PARAMS: DRVH= 721    DRVL= 721    CAPACITANCE=   0     
*
* Analog/Digital interface power supply subcircuits
*
X$CD4000_PWR 0 CD4000_PWR


**** 10/18/22 13:05:22 ******* PSpice 17.4.0 (Nov 2018) ******* ID# 0 ********

 ** Profile: "SCHEMATIC1-original_values_time"  [ d:\orcad projects\digital_logic_probe_v5\digital_logic_probe_v5-PSpiceFiles\SCHEMAT


 ****     Diode MODEL PARAMETERS


******************************************************************************




               LS_3336-TYP     LT_3333-TYP     LY_3336-TYP     D1N4001         
          IS  980.130000E-24    6.253800E-12  980.130000E-24   14.110000E-09 
           N    1.6749          5               1.6749          1.984        
         IKF    7.140200E-03    2.089100E-03    7.140200E-03   94.81         
          BV                                                   75            
         IBV                                                   10.000000E-06 
          RS    1.6217          7.9741          1.6217           .03389      
          TT                                                    5.700000E-06 
         CJO                                                   25.890000E-12 
          VJ                                                     .3245       
           M                                                     .44         


               D74CLMP         
          IS    1.000000E-15 
          RS    2            
         CJO    2.000000E-12 


**** 10/18/22 13:05:22 ******* PSpice 17.4.0 (Nov 2018) ******* ID# 0 ********

 ** Profile: "SCHEMATIC1-original_values_time"  [ d:\orcad projects\digital_logic_probe_v5\digital_logic_probe_v5-PSpiceFiles\SCHEMAT


 ****     Digital Input MODEL PARAMETERS


******************************************************************************




               DIN4000UB       
      S0NAME 0               
       S0TSW   15.000000E-09 
       S0RLO    1            
       S0RHI   80.000000E+03 
      S1NAME 1               
       S1TSW   15.000000E-09 
       S1RLO   40.000000E+03 
       S1RHI    1            
      S2NAME X               
       S2TSW   15.000000E-09 
       S2RLO  800            
       S2RHI  800            
      S3NAME R               
       S3TSW   15.000000E-09 
       S3RLO  800            
       S3RHI  800            
      S4NAME F               
       S4TSW   15.000000E-09 
       S4RLO  800            
       S4RHI  800            
      S5NAME Z               
       S5TSW   15.000000E-09 
       S5RLO    1.000000E+06 
       S5RHI    1.000000E+06 


**** 10/18/22 13:05:22 ******* PSpice 17.4.0 (Nov 2018) ******* ID# 0 ********

 ** Profile: "SCHEMATIC1-original_values_time"  [ d:\orcad projects\digital_logic_probe_v5\digital_logic_probe_v5-PSpiceFiles\SCHEMAT


 ****     Digital Output MODEL PARAMETERS


******************************************************************************




               DO4000UB        
    TIMESTEP  100.000000E-12 
      S0NAME X               
       S0VHI     .5          
       S0VLO    -.5          
      S1NAME 0               
       S1VHI    -.5          
       S1VLO   -3            
      S2NAME R               
       S2VHI     .05         
       S2VLO    -.5          
      S3NAME R               
       S3VHI     .5          
       S3VLO    -.05         
      S4NAME X               
       S4VHI     .5          
       S4VLO    -.5          
      S5NAME 1               
       S5VHI    3            
       S5VLO     .5          
      S6NAME F               
       S6VHI     .5          
       S6VLO    -.05         
      S7NAME F               
       S7VHI     .05         
       S7VLO    -.5          


**** 10/18/22 13:05:22 ******* PSpice 17.4.0 (Nov 2018) ******* ID# 0 ********

 ** Profile: "SCHEMATIC1-original_values_time"  [ d:\orcad projects\digital_logic_probe_v5\digital_logic_probe_v5-PSpiceFiles\SCHEMAT


 ****     Digital Gate MODEL PARAMETERS


******************************************************************************




               D_CD4049UB      
      TPLHMN   24.000000E-09 
      TPLHTY   60.000000E-09 
      TPLHMX  120.000000E-09 
      TPHLMN   12.800000E-09 
      TPHLTY   32.000000E-09 
      TPHLMX   65.000000E-09 


**** 10/18/22 13:05:22 ******* PSpice 17.4.0 (Nov 2018) ******* ID# 0 ********

 ** Profile: "SCHEMATIC1-original_values_time"  [ d:\orcad projects\digital_logic_probe_v5\digital_logic_probe_v5-PSpiceFiles\SCHEMAT


 ****     Digital IO  MODEL PARAMETERS


******************************************************************************




               IO_4000UB       
        DRVL  721            
        DRVH  721            
       AtoD1 AtoD_4000UB     
       AtoD2 AtoD_4000UB_NX  
       AtoD3 AtoD_4000UB     
       AtoD4 AtoD_4000UB_NX  
       DtoA1 DtoA_4000UB     
       DtoA2 DtoA_4000UB     
       DtoA3 DtoA_4000UB     
       DtoA4 DtoA_4000UB     
    DIGPOWER CD4000_PWR      
      TSWHL1    6.940000E-09 
      TSWHL2    6.520000E-09 
      TSWHL3    9.470000E-09 
      TSWHL4    9.000000E-09 
      TSWLH1    8.490000E-09 
      TSWLH2    8.830000E-09 
      TSWLH3   11.760000E-09 
      TSWLH4   11.240000E-09 
       TPWRT  100.000000E+03 


**** 10/18/22 13:05:22 ******* PSpice 17.4.0 (Nov 2018) ******* ID# 0 ********

 ** Profile: "SCHEMATIC1-original_values_time"  [ d:\orcad projects\digital_logic_probe_v5\digital_logic_probe_v5-PSpiceFiles\SCHEMAT


 ****     INITIAL TRANSIENT SOLUTION       TEMPERATURE =   27.000 DEG C


******************************************************************************



 NODE   VOLTAGE     NODE   VOLTAGE     NODE   VOLTAGE     NODE   VOLTAGE


(  VDD)    5.4400  (N00644)    4.9912 (N00653)    5.0704 (N00751)    4.8800     

(N01455)    4.8799 (N01477)    1.2928 (N01542)    5.0052 (N01625)    4.8800     

(N01685)     .0409 (N01689)     .0110 (N02065)    5.0000 (N02561)    2.8430     

(N02893)    4.8799 ($G_CD4000_VDD)    5.0000                                    

($G_CD4000_VSS)    0.0000             (X$N00644_AtoD1.NORM)     .8304           

(X$N00653_AtoD1.NORM)     .8568       (X$N01542_AtoD1.NORM)     .8351           

(X$N01689_AtoD1.NORM)    -.8297       (X$N01455_DtoA1.DRVGND)     .0800         

(X$N01455_DtoA1.DRVPWR)    4.8800     (X$N01477_DtoA1.DRVGND)    1.2908         

(X$N01477_DtoA1.DRVPWR)    4.9542     (X$N01625_DtoA1.DRVGND)     .0800         

(X$N01625_DtoA1.DRVPWR)    4.8801     (X$N01685_DtoA1.DRVGND)     .0408         

(X$N01685_DtoA1.DRVPWR)    4.9388     (X$N01455_DtoA1.X1.DRVN)     .0015        

(X$N01455_DtoA1.X1.DRVP)     .0010    (X$N01477_DtoA1.X1.DRVN)     .0015        

(X$N01477_DtoA1.X1.DRVP)     .0010    (X$N01625_DtoA1.X1.DRVN)     .0015        

(X$N01625_DtoA1.X1.DRVP)     .0010    (X$N01685_DtoA1.X1.DRVN)     .0015        

(X$N01685_DtoA1.X1.DRVP)     .0010    (X$N00644_AtoD1.XNORM.THRESHOLD)    1.0000

(X$N00653_AtoD1.XNORM.THRESHOLD)    1.0000                                      

(X$N01542_AtoD1.XNORM.THRESHOLD)    1.0000                                      

(X$N01689_AtoD1.XNORM.THRESHOLD)    1.0000               



 DGTL NODE : STATE  DGTL NODE : STATE  DGTL NODE : STATE  DGTL NODE : STATE


(N01625$DtoA) : 1  (N01685$DtoA) : 0  (N01477$DtoA) : 0  (N01689$AtoD) : 0      

(N01455$DtoA) : 1  (N00653$AtoD) : 1  (N00644$AtoD) : 1  (N01542$AtoD) : 1      

(  N01451) : 0     




    VOLTAGE SOURCE CURRENTS
    NAME         CURRENT

    V_V1        -1.891E-03
    V_Vin       -8.846E-06
    X$CD4000_PWR.VVDD  -3.519E-04
    X$CD4000_PWR.VVSS   1.886E-03

    TOTAL POWER DISSIPATION   1.21E-02  WATTS


**** Interrupt ****

          JOB ABORTED

**** 10/18/22 13:05:22 ******* PSpice 17.4.0 (Nov 2018) ******* ID# 0 ********

 ** Profile: "SCHEMATIC1-original_values_time"  [ d:\orcad projects\digital_logic_probe_v5\digital_logic_probe_v5-PSpiceFiles\SCHEMAT


 ****     JOB STATISTICS SUMMARY


******************************************************************************



  License check-out time            =       71.52
  Total job time (using Solver 1)   =        3.25
