
**** 10/23/22 19:10:30 ******* PSpice 17.4.0 (Nov 2018) ******* ID# 0 ********

 ** Profile: "SCHEMATIC1-prep_q3"  [ C:\Cadence\My projects\Lab_analogCAD_exp1\Lab_analogCAD_exp1-PSpiceFiles\SCHEMATIC1\prep_q3.sim 


 ****     CIRCUIT DESCRIPTION


******************************************************************************




** Creating circuit file "prep_q3.cir" 
** WARNING: THIS AUTOMATICALLY GENERATED FILE MAY BE OVERWRITTEN BY SUBSEQUENT SIMULATIONS

*Libraries: 
* Profile Libraries :
* Local Libraries :
* From [PSPICE NETLIST] section of C:\Users\sixsi\AppData\Roaming\SPB_Data\cdssetup\OrCAD_PSpice\17.4.0\PSpice.ini file:
.lib "nom.lib" 

*Analysis directives: 
.TRAN  0 10m 0 10u 
.STEP LIN PARAM RVAL 50 4k 50 
.OPTIONS ADVCONV
.PROBE64 V(alias(*)) I(alias(*)) W(alias(*)) D(alias(*)) NOISE(alias(*)) 
.INC "..\SCHEMATIC1.net" 



**** INCLUDING SCHEMATIC1.net ****
* source LAB_ANALOGCAD_EXP1
R_R1         0 N00158  1k TC=0,0 
D_D1         N00149 N00158 Dbreak 
V_V1         N00149 0  AC 5
+SIN 0 5 1k 0 0 0
D_D2         N00579 N00572 D1N754 
D_D3         N00579 0 D1N754 
R_R2         N00563 N00572  1k TC=0,0 
V_V2         N00563 0  AC 10
+SIN 0 10 1k 0 0 0
V_V3         N00891 0  AC 0.25
+SIN 8 0.25 1k 0 0 0
R_R3         N00891 N00901  1k TC=0,0 
D_D4         0 N00901 D1N754 
R_R4         0 N00901  {RVAL} TC=0,0 
.PARAM  rval=10

**** RESUMING prep_q3.cir ****
.END

**** 10/23/22 19:10:30 ******* PSpice 17.4.0 (Nov 2018) ******* ID# 0 ********

 ** Profile: "SCHEMATIC1-prep_q3"  [ C:\Cadence\My projects\Lab_analogCAD_exp1\Lab_analogCAD_exp1-PSpiceFiles\SCHEMATIC1\prep_q3.sim 


 ****     Diode MODEL PARAMETERS


******************************************************************************




               Dbreak          D1N754          
          IS   10.000000E-15    1.616000E-15 
         ISR                    1.698000E-09 
          BV                    6.8          
         IBV                    2.8814       
         NBV                     .28248      
        IBVL                    1.942600E-06 
        NBVL                     .27168      
          RS     .1             1.818        
         CJO  100.000000E-15  120.000000E-12 
          VJ                     .75         
           M                     .5117       
        TBV1                  485.290000E-06 


**** 10/23/22 19:10:30 ******* PSpice 17.4.0 (Nov 2018) ******* ID# 0 ********

 ** Profile: "SCHEMATIC1-prep_q3"  [ C:\Cadence\My projects\Lab_analogCAD_exp1\Lab_analogCAD_exp1-PSpiceFiles\SCHEMATIC1\prep_q3.sim 


 ****     INITIAL TRANSIENT SOLUTION       TEMPERATURE =   27.000 DEG C

 ****     CURRENT STEP                     PARAM RVAL =   50    


******************************************************************************



 NODE   VOLTAGE     NODE   VOLTAGE     NODE   VOLTAGE     NODE   VOLTAGE


(N00149)    0.0000 (N00158)-639.9E-30 (N00563)    0.0000 (N00572) 11.71E-27     

(N00579) 1.647E-15 (N00891)    8.0000 (N00901)     .3810 




    VOLTAGE SOURCE CURRENTS
    NAME         CURRENT

    V_V1         0.000E+00
    V_V2         1.171E-29
    V_V3        -7.619E-03

    TOTAL POWER DISSIPATION   6.10E-02  WATTS


**** 10/23/22 19:10:30 ******* PSpice 17.4.0 (Nov 2018) ******* ID# 0 ********

 ** Profile: "SCHEMATIC1-prep_q3"  [ C:\Cadence\My projects\Lab_analogCAD_exp1\Lab_analogCAD_exp1-PSpiceFiles\SCHEMATIC1\prep_q3.sim 


 ****     INITIAL TRANSIENT SOLUTION       TEMPERATURE =   27.000 DEG C

 ****     CURRENT STEP                     PARAM RVAL =  100   


******************************************************************************



 NODE   VOLTAGE     NODE   VOLTAGE     NODE   VOLTAGE     NODE   VOLTAGE


(N00149)    0.0000 (N00158)-639.9E-30 (N00563)    0.0000 (N00572) 11.71E-27     

(N00579) 1.647E-15 (N00891)    8.0000 (N00901)     .7273 




    VOLTAGE SOURCE CURRENTS
    NAME         CURRENT

    V_V1         0.000E+00
    V_V2         1.171E-29
    V_V3        -7.273E-03

    TOTAL POWER DISSIPATION   5.82E-02  WATTS


**** 10/23/22 19:10:30 ******* PSpice 17.4.0 (Nov 2018) ******* ID# 0 ********

 ** Profile: "SCHEMATIC1-prep_q3"  [ C:\Cadence\My projects\Lab_analogCAD_exp1\Lab_analogCAD_exp1-PSpiceFiles\SCHEMATIC1\prep_q3.sim 


 ****     INITIAL TRANSIENT SOLUTION       TEMPERATURE =   27.000 DEG C

 ****     CURRENT STEP                     PARAM RVAL =  150   


******************************************************************************



 NODE   VOLTAGE     NODE   VOLTAGE     NODE   VOLTAGE     NODE   VOLTAGE


(N00149)    0.0000 (N00158)-639.9E-30 (N00563)    0.0000 (N00572) 11.71E-27     

(N00579) 1.647E-15 (N00891)    8.0000 (N00901)    1.0435 




    VOLTAGE SOURCE CURRENTS
    NAME         CURRENT

    V_V1         0.000E+00
    V_V2         1.171E-29
    V_V3        -6.957E-03

    TOTAL POWER DISSIPATION   5.57E-02  WATTS


**** 10/23/22 19:10:30 ******* PSpice 17.4.0 (Nov 2018) ******* ID# 0 ********

 ** Profile: "SCHEMATIC1-prep_q3"  [ C:\Cadence\My projects\Lab_analogCAD_exp1\Lab_analogCAD_exp1-PSpiceFiles\SCHEMATIC1\prep_q3.sim 


 ****     INITIAL TRANSIENT SOLUTION       TEMPERATURE =   27.000 DEG C

 ****     CURRENT STEP                     PARAM RVAL =  200   


******************************************************************************



 NODE   VOLTAGE     NODE   VOLTAGE     NODE   VOLTAGE     NODE   VOLTAGE


(N00149)    0.0000 (N00158)-639.9E-30 (N00563)    0.0000 (N00572) 11.71E-27     

(N00579) 1.647E-15 (N00891)    8.0000 (N00901)    1.3333 




    VOLTAGE SOURCE CURRENTS
    NAME         CURRENT

    V_V1         0.000E+00
    V_V2         1.171E-29
    V_V3        -6.667E-03

    TOTAL POWER DISSIPATION   5.33E-02  WATTS


**** 10/23/22 19:10:30 ******* PSpice 17.4.0 (Nov 2018) ******* ID# 0 ********

 ** Profile: "SCHEMATIC1-prep_q3"  [ C:\Cadence\My projects\Lab_analogCAD_exp1\Lab_analogCAD_exp1-PSpiceFiles\SCHEMATIC1\prep_q3.sim 


 ****     INITIAL TRANSIENT SOLUTION       TEMPERATURE =   27.000 DEG C

 ****     CURRENT STEP                     PARAM RVAL =  250   


******************************************************************************



 NODE   VOLTAGE     NODE   VOLTAGE     NODE   VOLTAGE     NODE   VOLTAGE


(N00149)    0.0000 (N00158)-639.9E-30 (N00563)    0.0000 (N00572) 11.71E-27     

(N00579) 1.647E-15 (N00891)    8.0000 (N00901)    1.6000 




    VOLTAGE SOURCE CURRENTS
    NAME         CURRENT

    V_V1         0.000E+00
    V_V2         1.171E-29
    V_V3        -6.400E-03

    TOTAL POWER DISSIPATION   5.12E-02  WATTS


**** 10/23/22 19:10:30 ******* PSpice 17.4.0 (Nov 2018) ******* ID# 0 ********

 ** Profile: "SCHEMATIC1-prep_q3"  [ C:\Cadence\My projects\Lab_analogCAD_exp1\Lab_analogCAD_exp1-PSpiceFiles\SCHEMATIC1\prep_q3.sim 


 ****     INITIAL TRANSIENT SOLUTION       TEMPERATURE =   27.000 DEG C

 ****     CURRENT STEP                     PARAM RVAL =  300   


******************************************************************************



 NODE   VOLTAGE     NODE   VOLTAGE     NODE   VOLTAGE     NODE   VOLTAGE


(N00149)    0.0000 (N00158)-639.9E-30 (N00563)    0.0000 (N00572) 11.71E-27     

(N00579) 1.647E-15 (N00891)    8.0000 (N00901)    1.8462 




    VOLTAGE SOURCE CURRENTS
    NAME         CURRENT

    V_V1         0.000E+00
    V_V2         1.171E-29
    V_V3        -6.154E-03

    TOTAL POWER DISSIPATION   4.92E-02  WATTS


**** 10/23/22 19:10:30 ******* PSpice 17.4.0 (Nov 2018) ******* ID# 0 ********

 ** Profile: "SCHEMATIC1-prep_q3"  [ C:\Cadence\My projects\Lab_analogCAD_exp1\Lab_analogCAD_exp1-PSpiceFiles\SCHEMATIC1\prep_q3.sim 


 ****     INITIAL TRANSIENT SOLUTION       TEMPERATURE =   27.000 DEG C

 ****     CURRENT STEP                     PARAM RVAL =  350   


******************************************************************************



 NODE   VOLTAGE     NODE   VOLTAGE     NODE   VOLTAGE     NODE   VOLTAGE


(N00149)    0.0000 (N00158)-639.9E-30 (N00563)    0.0000 (N00572) 11.71E-27     

(N00579) 1.647E-15 (N00891)    8.0000 (N00901)    2.0741 




    VOLTAGE SOURCE CURRENTS
    NAME         CURRENT

    V_V1         0.000E+00
    V_V2         1.171E-29
    V_V3        -5.926E-03

    TOTAL POWER DISSIPATION   4.74E-02  WATTS


**** 10/23/22 19:10:30 ******* PSpice 17.4.0 (Nov 2018) ******* ID# 0 ********

 ** Profile: "SCHEMATIC1-prep_q3"  [ C:\Cadence\My projects\Lab_analogCAD_exp1\Lab_analogCAD_exp1-PSpiceFiles\SCHEMATIC1\prep_q3.sim 


 ****     INITIAL TRANSIENT SOLUTION       TEMPERATURE =   27.000 DEG C

 ****     CURRENT STEP                     PARAM RVAL =  400   


******************************************************************************



 NODE   VOLTAGE     NODE   VOLTAGE     NODE   VOLTAGE     NODE   VOLTAGE


(N00149)    0.0000 (N00158)-639.9E-30 (N00563)    0.0000 (N00572) 11.71E-27     

(N00579) 1.647E-15 (N00891)    8.0000 (N00901)    2.2857 




    VOLTAGE SOURCE CURRENTS
    NAME         CURRENT

    V_V1         0.000E+00
    V_V2         1.171E-29
    V_V3        -5.714E-03

    TOTAL POWER DISSIPATION   4.57E-02  WATTS


**** 10/23/22 19:10:30 ******* PSpice 17.4.0 (Nov 2018) ******* ID# 0 ********

 ** Profile: "SCHEMATIC1-prep_q3"  [ C:\Cadence\My projects\Lab_analogCAD_exp1\Lab_analogCAD_exp1-PSpiceFiles\SCHEMATIC1\prep_q3.sim 


 ****     INITIAL TRANSIENT SOLUTION       TEMPERATURE =   27.000 DEG C

 ****     CURRENT STEP                     PARAM RVAL =  450   


******************************************************************************



 NODE   VOLTAGE     NODE   VOLTAGE     NODE   VOLTAGE     NODE   VOLTAGE


(N00149)    0.0000 (N00158)-639.9E-30 (N00563)    0.0000 (N00572) 11.71E-27     

(N00579) 1.647E-15 (N00891)    8.0000 (N00901)    2.4828 




    VOLTAGE SOURCE CURRENTS
    NAME         CURRENT

    V_V1         0.000E+00
    V_V2         1.171E-29
    V_V3        -5.517E-03

    TOTAL POWER DISSIPATION   4.41E-02  WATTS


**** 10/23/22 19:10:30 ******* PSpice 17.4.0 (Nov 2018) ******* ID# 0 ********

 ** Profile: "SCHEMATIC1-prep_q3"  [ C:\Cadence\My projects\Lab_analogCAD_exp1\Lab_analogCAD_exp1-PSpiceFiles\SCHEMATIC1\prep_q3.sim 


 ****     INITIAL TRANSIENT SOLUTION       TEMPERATURE =   27.000 DEG C

 ****     CURRENT STEP                     PARAM RVAL =  500   


******************************************************************************



 NODE   VOLTAGE     NODE   VOLTAGE     NODE   VOLTAGE     NODE   VOLTAGE


(N00149)    0.0000 (N00158)-639.9E-30 (N00563)    0.0000 (N00572) 11.71E-27     

(N00579) 1.647E-15 (N00891)    8.0000 (N00901)    2.6667 




    VOLTAGE SOURCE CURRENTS
    NAME         CURRENT

    V_V1         0.000E+00
    V_V2         1.171E-29
    V_V3        -5.333E-03

    TOTAL POWER DISSIPATION   4.27E-02  WATTS


**** 10/23/22 19:10:30 ******* PSpice 17.4.0 (Nov 2018) ******* ID# 0 ********

 ** Profile: "SCHEMATIC1-prep_q3"  [ C:\Cadence\My projects\Lab_analogCAD_exp1\Lab_analogCAD_exp1-PSpiceFiles\SCHEMATIC1\prep_q3.sim 


 ****     INITIAL TRANSIENT SOLUTION       TEMPERATURE =   27.000 DEG C

 ****     CURRENT STEP                     PARAM RVAL =  550   


******************************************************************************



 NODE   VOLTAGE     NODE   VOLTAGE     NODE   VOLTAGE     NODE   VOLTAGE


(N00149)    0.0000 (N00158)-639.9E-30 (N00563)    0.0000 (N00572) 11.71E-27     

(N00579) 1.647E-15 (N00891)    8.0000 (N00901)    2.8387 




    VOLTAGE SOURCE CURRENTS
    NAME         CURRENT

    V_V1         0.000E+00
    V_V2         1.171E-29
    V_V3        -5.161E-03

    TOTAL POWER DISSIPATION   4.13E-02  WATTS


**** 10/23/22 19:10:30 ******* PSpice 17.4.0 (Nov 2018) ******* ID# 0 ********

 ** Profile: "SCHEMATIC1-prep_q3"  [ C:\Cadence\My projects\Lab_analogCAD_exp1\Lab_analogCAD_exp1-PSpiceFiles\SCHEMATIC1\prep_q3.sim 


 ****     INITIAL TRANSIENT SOLUTION       TEMPERATURE =   27.000 DEG C

 ****     CURRENT STEP                     PARAM RVAL =  600   


******************************************************************************



 NODE   VOLTAGE     NODE   VOLTAGE     NODE   VOLTAGE     NODE   VOLTAGE


(N00149)    0.0000 (N00158)-639.9E-30 (N00563)    0.0000 (N00572) 11.71E-27     

(N00579) 1.647E-15 (N00891)    8.0000 (N00901)    3.0000 




    VOLTAGE SOURCE CURRENTS
    NAME         CURRENT

    V_V1         0.000E+00
    V_V2         1.171E-29
    V_V3        -5.000E-03

    TOTAL POWER DISSIPATION   4.00E-02  WATTS


**** 10/23/22 19:10:30 ******* PSpice 17.4.0 (Nov 2018) ******* ID# 0 ********

 ** Profile: "SCHEMATIC1-prep_q3"  [ C:\Cadence\My projects\Lab_analogCAD_exp1\Lab_analogCAD_exp1-PSpiceFiles\SCHEMATIC1\prep_q3.sim 


 ****     INITIAL TRANSIENT SOLUTION       TEMPERATURE =   27.000 DEG C

 ****     CURRENT STEP                     PARAM RVAL =  650   


******************************************************************************



 NODE   VOLTAGE     NODE   VOLTAGE     NODE   VOLTAGE     NODE   VOLTAGE


(N00149)    0.0000 (N00158)-639.9E-30 (N00563)    0.0000 (N00572) 11.71E-27     

(N00579) 1.647E-15 (N00891)    8.0000 (N00901)    3.1515 




    VOLTAGE SOURCE CURRENTS
    NAME         CURRENT

    V_V1         0.000E+00
    V_V2         1.171E-29
    V_V3        -4.848E-03

    TOTAL POWER DISSIPATION   3.88E-02  WATTS


**** 10/23/22 19:10:30 ******* PSpice 17.4.0 (Nov 2018) ******* ID# 0 ********

 ** Profile: "SCHEMATIC1-prep_q3"  [ C:\Cadence\My projects\Lab_analogCAD_exp1\Lab_analogCAD_exp1-PSpiceFiles\SCHEMATIC1\prep_q3.sim 


 ****     INITIAL TRANSIENT SOLUTION       TEMPERATURE =   27.000 DEG C

 ****     CURRENT STEP                     PARAM RVAL =  700   


******************************************************************************



 NODE   VOLTAGE     NODE   VOLTAGE     NODE   VOLTAGE     NODE   VOLTAGE


(N00149)    0.0000 (N00158)-639.9E-30 (N00563)    0.0000 (N00572) 11.71E-27     

(N00579) 1.647E-15 (N00891)    8.0000 (N00901)    3.2941 




    VOLTAGE SOURCE CURRENTS
    NAME         CURRENT

    V_V1         0.000E+00
    V_V2         1.171E-29
    V_V3        -4.706E-03

    TOTAL POWER DISSIPATION   3.76E-02  WATTS


**** 10/23/22 19:10:30 ******* PSpice 17.4.0 (Nov 2018) ******* ID# 0 ********

 ** Profile: "SCHEMATIC1-prep_q3"  [ C:\Cadence\My projects\Lab_analogCAD_exp1\Lab_analogCAD_exp1-PSpiceFiles\SCHEMATIC1\prep_q3.sim 


 ****     INITIAL TRANSIENT SOLUTION       TEMPERATURE =   27.000 DEG C

 ****     CURRENT STEP                     PARAM RVAL =  750   


******************************************************************************



 NODE   VOLTAGE     NODE   VOLTAGE     NODE   VOLTAGE     NODE   VOLTAGE


(N00149)    0.0000 (N00158)-639.9E-30 (N00563)    0.0000 (N00572) 11.71E-27     

(N00579) 1.647E-15 (N00891)    8.0000 (N00901)    3.4286 




    VOLTAGE SOURCE CURRENTS
    NAME         CURRENT

    V_V1         0.000E+00
    V_V2         1.171E-29
    V_V3        -4.571E-03

    TOTAL POWER DISSIPATION   3.66E-02  WATTS


**** 10/23/22 19:10:30 ******* PSpice 17.4.0 (Nov 2018) ******* ID# 0 ********

 ** Profile: "SCHEMATIC1-prep_q3"  [ C:\Cadence\My projects\Lab_analogCAD_exp1\Lab_analogCAD_exp1-PSpiceFiles\SCHEMATIC1\prep_q3.sim 


 ****     INITIAL TRANSIENT SOLUTION       TEMPERATURE =   27.000 DEG C

 ****     CURRENT STEP                     PARAM RVAL =  800   


******************************************************************************



 NODE   VOLTAGE     NODE   VOLTAGE     NODE   VOLTAGE     NODE   VOLTAGE


(N00149)    0.0000 (N00158)-639.9E-30 (N00563)    0.0000 (N00572) 11.71E-27     

(N00579) 1.647E-15 (N00891)    8.0000 (N00901)    3.5556 




    VOLTAGE SOURCE CURRENTS
    NAME         CURRENT

    V_V1         0.000E+00
    V_V2         1.171E-29
    V_V3        -4.444E-03

    TOTAL POWER DISSIPATION   3.56E-02  WATTS


**** 10/23/22 19:10:30 ******* PSpice 17.4.0 (Nov 2018) ******* ID# 0 ********

 ** Profile: "SCHEMATIC1-prep_q3"  [ C:\Cadence\My projects\Lab_analogCAD_exp1\Lab_analogCAD_exp1-PSpiceFiles\SCHEMATIC1\prep_q3.sim 


 ****     INITIAL TRANSIENT SOLUTION       TEMPERATURE =   27.000 DEG C

 ****     CURRENT STEP                     PARAM RVAL =  850   


******************************************************************************



 NODE   VOLTAGE     NODE   VOLTAGE     NODE   VOLTAGE     NODE   VOLTAGE


(N00149)    0.0000 (N00158)-639.9E-30 (N00563)    0.0000 (N00572) 11.71E-27     

(N00579) 1.647E-15 (N00891)    8.0000 (N00901)    3.6757 




    VOLTAGE SOURCE CURRENTS
    NAME         CURRENT

    V_V1         0.000E+00
    V_V2         1.171E-29
    V_V3        -4.324E-03

    TOTAL POWER DISSIPATION   3.46E-02  WATTS


**** 10/23/22 19:10:30 ******* PSpice 17.4.0 (Nov 2018) ******* ID# 0 ********

 ** Profile: "SCHEMATIC1-prep_q3"  [ C:\Cadence\My projects\Lab_analogCAD_exp1\Lab_analogCAD_exp1-PSpiceFiles\SCHEMATIC1\prep_q3.sim 


 ****     INITIAL TRANSIENT SOLUTION       TEMPERATURE =   27.000 DEG C

 ****     CURRENT STEP                     PARAM RVAL =  900   


******************************************************************************



 NODE   VOLTAGE     NODE   VOLTAGE     NODE   VOLTAGE     NODE   VOLTAGE


(N00149)    0.0000 (N00158)-639.9E-30 (N00563)    0.0000 (N00572) 11.71E-27     

(N00579) 1.647E-15 (N00891)    8.0000 (N00901)    3.7895 




    VOLTAGE SOURCE CURRENTS
    NAME         CURRENT

    V_V1         0.000E+00
    V_V2         1.171E-29
    V_V3        -4.211E-03

    TOTAL POWER DISSIPATION   3.37E-02  WATTS


**** 10/23/22 19:10:30 ******* PSpice 17.4.0 (Nov 2018) ******* ID# 0 ********

 ** Profile: "SCHEMATIC1-prep_q3"  [ C:\Cadence\My projects\Lab_analogCAD_exp1\Lab_analogCAD_exp1-PSpiceFiles\SCHEMATIC1\prep_q3.sim 


 ****     INITIAL TRANSIENT SOLUTION       TEMPERATURE =   27.000 DEG C

 ****     CURRENT STEP                     PARAM RVAL =  950   


******************************************************************************



 NODE   VOLTAGE     NODE   VOLTAGE     NODE   VOLTAGE     NODE   VOLTAGE


(N00149)    0.0000 (N00158)-639.9E-30 (N00563)    0.0000 (N00572) 11.71E-27     

(N00579) 1.647E-15 (N00891)    8.0000 (N00901)    3.8974 




    VOLTAGE SOURCE CURRENTS
    NAME         CURRENT

    V_V1         0.000E+00
    V_V2         1.171E-29
    V_V3        -4.103E-03

    TOTAL POWER DISSIPATION   3.28E-02  WATTS


**** 10/23/22 19:10:30 ******* PSpice 17.4.0 (Nov 2018) ******* ID# 0 ********

 ** Profile: "SCHEMATIC1-prep_q3"  [ C:\Cadence\My projects\Lab_analogCAD_exp1\Lab_analogCAD_exp1-PSpiceFiles\SCHEMATIC1\prep_q3.sim 


 ****     INITIAL TRANSIENT SOLUTION       TEMPERATURE =   27.000 DEG C

 ****     CURRENT STEP                     PARAM RVAL =    1.0000E+03


******************************************************************************



 NODE   VOLTAGE     NODE   VOLTAGE     NODE   VOLTAGE     NODE   VOLTAGE


(N00149)    0.0000 (N00158)-639.9E-30 (N00563)    0.0000 (N00572) 11.71E-27     

(N00579) 1.647E-15 (N00891)    8.0000 (N00901)    4.0000 




    VOLTAGE SOURCE CURRENTS
    NAME         CURRENT

    V_V1         0.000E+00
    V_V2         1.171E-29
    V_V3        -4.000E-03

    TOTAL POWER DISSIPATION   3.20E-02  WATTS


**** 10/23/22 19:10:30 ******* PSpice 17.4.0 (Nov 2018) ******* ID# 0 ********

 ** Profile: "SCHEMATIC1-prep_q3"  [ C:\Cadence\My projects\Lab_analogCAD_exp1\Lab_analogCAD_exp1-PSpiceFiles\SCHEMATIC1\prep_q3.sim 


 ****     INITIAL TRANSIENT SOLUTION       TEMPERATURE =   27.000 DEG C

 ****     CURRENT STEP                     PARAM RVAL =    1.0500E+03


******************************************************************************



 NODE   VOLTAGE     NODE   VOLTAGE     NODE   VOLTAGE     NODE   VOLTAGE


(N00149)    0.0000 (N00158)-639.9E-30 (N00563)    0.0000 (N00572) 11.71E-27     

(N00579) 1.647E-15 (N00891)    8.0000 (N00901)    4.0976 




    VOLTAGE SOURCE CURRENTS
    NAME         CURRENT

    V_V1         0.000E+00
    V_V2         1.171E-29
    V_V3        -3.902E-03

