
**** 11/16/22 18:31:54 ******* PSpice 17.4.0 (Nov 2018) ******* ID# 0 ********

 ** Profile: "SCHEMATIC1-DC_Qpnt"  [ D:\Orcad Projects\hw1_analog_electronics_2\hw1_analog_electronics_2-PSpiceFiles\SCHEMATIC1\DC_Qp


 ****     CIRCUIT DESCRIPTION


******************************************************************************




** Creating circuit file "DC_Qpnt.cir" 
** WARNING: THIS AUTOMATICALLY GENERATED FILE MAY BE OVERWRITTEN BY SUBSEQUENT SIMULATIONS

*Libraries: 
* Profile Libraries :
* Local Libraries :
.LIB "../../../hw1_analog_electronics_2-pspicefiles/hw1_analog_electronics_2.lib" 
* From [PSPICE NETLIST] section of C:\Users\sixsi\AppData\Roaming\SPB_Data\cdssetup\OrCAD_PSpice\17.4.0\PSpice.ini file:
.lib "nom.lib" 

*Analysis directives: 
.OP
.OPTIONS ADVCONV
.PROBE64 V(alias(*)) I(alias(*)) W(alias(*)) D(alias(*)) NOISE(alias(*)) 
.INC "..\SCHEMATIC1.net" 



**** INCLUDING SCHEMATIC1.net ****
* source HW1_ANALOG_ELECTRONICS_2
Q_Q1         N00088 N00350 N00391 Qbreakn 
Q_Q2         N00367 N00308 N00088 Qbreakn 
R_R1         N00308 VCC1  47k TC=0,0 
R_R2         0 N00308  82k TC=0,0 
R_R3         0 N00350  10k TC=0,0 
R_R4         N00350 VCC1  47k TC=0,0 
R_R5         0 N00391  1k TC=0,0 
R_R6         N00367 VCC1  1k TC=0,0 
V_V1         VCC1 0 12V

**** RESUMING DC_Qpnt.cir ****
.END

WARNING(ORPSIM-15223): Library file "D:\Orcad Projects\hw1_analog_electronics_2\hw1_analog_electronics_2-pspicefiles\hw1_analog_electronics_2.lib" has changed since index file hw1_analog_electronics_2.ind was created.

WARNING(ORPSIM-15227): The timestamp changed from Wed Nov 16 18:31:15 2022 to Wed Nov 16 18:31:50 2022.

INFO(ORPSIM-15422): Making new index file hw1_analog_electronics_2.ind for library file hw1_analog_electronics_2.lib.

Index has 1 entries from 1 file(s).

**** 11/16/22 18:31:54 ******* PSpice 17.4.0 (Nov 2018) ******* ID# 0 ********

 ** Profile: "SCHEMATIC1-DC_Qpnt"  [ D:\Orcad Projects\hw1_analog_electronics_2\hw1_analog_electronics_2-PSpiceFiles\SCHEMATIC1\DC_Qp


 ****     BJT MODEL PARAMETERS


******************************************************************************




               Qbreakn         
               NPN             
       LEVEL    1            
          IS  100.000000E-18 
          BF  100            
          NF    1            
          BR    1            
          NR    1            
         ISS    0            
          RE    0            
          RC    0            
         CJE    0            
         VJE     .7          
         CJC    0            
         VJC     .75         
         MJC     .33         
        XCJC    1            
         CJS    0            
         VJS     .75         
          KF    0            
          AF    1            
          CN    2.42         
           D     .87         


**** 11/16/22 18:31:54 ******* PSpice 17.4.0 (Nov 2018) ******* ID# 0 ********

 ** Profile: "SCHEMATIC1-DC_Qpnt"  [ D:\Orcad Projects\hw1_analog_electronics_2\hw1_analog_electronics_2-PSpiceFiles\SCHEMATIC1\DC_Qp


 ****     SMALL SIGNAL BIAS SOLUTION       TEMPERATURE =   27.000 DEG C


******************************************************************************



 NODE   VOLTAGE     NODE   VOLTAGE     NODE   VOLTAGE     NODE   VOLTAGE


( VCC1)   12.0000  (N00088)    6.4899 (N00308)    7.2689 (N00350)    2.0052     

(N00367)   10.7980 (N00391)    1.2260 




    VOLTAGE SOURCE CURRENTS
    NAME         CURRENT

    V_V1        -1.515E-03

    TOTAL POWER DISSIPATION   1.82E-02  WATTS


**** 11/16/22 18:31:54 ******* PSpice 17.4.0 (Nov 2018) ******* ID# 0 ********

 ** Profile: "SCHEMATIC1-DC_Qpnt"  [ D:\Orcad Projects\hw1_analog_electronics_2\hw1_analog_electronics_2-PSpiceFiles\SCHEMATIC1\DC_Qp


 ****     OPERATING POINT INFORMATION      TEMPERATURE =   27.000 DEG C


******************************************************************************






**** BIPOLAR JUNCTION TRANSISTORS


NAME         Q_Q1        Q_Q2      
MODEL        Qbreakn     Qbreakn   
IB           1.21E-05    1.20E-05 
IC           1.21E-03    1.20E-03 
VBE          7.79E-01    7.79E-01 
VBC         -4.48E+00   -3.53E+00 
VCE          5.26E+00    4.31E+00 
BETADC       1.00E+02    1.00E+02 
GM           4.69E-02    4.65E-02 
RPI          2.13E+03    2.15E+03 
RX           0.00E+00    0.00E+00 
RO           1.00E+12    1.00E+12 
CBE          0.00E+00    0.00E+00 
CBC          0.00E+00    0.00E+00 
CJS          0.00E+00    0.00E+00 
BETAAC       1.00E+02    1.00E+02 
CBX/CBX2     0.00E+00    0.00E+00 
FT/FT2       7.47E+17    7.40E+17 



          JOB CONCLUDED

**** 11/16/22 18:31:54 ******* PSpice 17.4.0 (Nov 2018) ******* ID# 0 ********

 ** Profile: "SCHEMATIC1-DC_Qpnt"  [ D:\Orcad Projects\hw1_analog_electronics_2\hw1_analog_electronics_2-PSpiceFiles\SCHEMATIC1\DC_Qp


 ****     JOB STATISTICS SUMMARY


******************************************************************************



  Total job time (using Solver 1)   =         .02
