
**** 05/18/23 21:51:18 ******* PSpice 17.4.0 (Nov 2018) ******* ID# 0 ********

 ** Profile: "SCHEMATIC1-time_sim"  [ D:\Orcad Projects\prep7_digiElecLab\prep7_analog2-pspicefiles\schematic1\time_sim.sim ] 


 ****     CIRCUIT DESCRIPTION


******************************************************************************




** Creating circuit file "time_sim.cir" 
** WARNING: THIS AUTOMATICALLY GENERATED FILE MAY BE OVERWRITTEN BY SUBSEQUENT SIMULATIONS

*Libraries: 
* Profile Libraries :
* Local Libraries :
* From [PSPICE NETLIST] section of C:\Users\sixsi\AppData\Roaming\SPB_Data\cdssetup\OrCAD_PSpice\17.4.0\PSpice.ini file:
.lib "nom.lib" 

*Analysis directives: 
.OP
.OPTIONS ADVCONV
.PROBE64 V(alias(*)) I(alias(*)) W(alias(*)) D(alias(*)) NOISE(alias(*)) 
.INC "..\SCHEMATIC1.net" 



**** INCLUDING SCHEMATIC1.net ****
* source PREP7_ANALOG2
X_U1         N01352 N01366 +15V -15V VOUT2 LM741
X_U2A         0 N00343 +15V -15V N00360 LM324
X_U2B         0 N00384 +15V -15V VOUT1 LM324
R_R1         VIN1 N00343  3.3k TC=0,0 
R_R2         N00343 N00360  10k TC=0,0 
R_R3         N00360 N00384  3.3k TC=0,0 
R_R4         VIN2 N00384  3.3k TC=0,0 
R_R5         N00384 VOUT1  3.3k TC=0,0 
V_V1         +15V 0 15V
V_V2         0 -15V 15V
V_V3         VIN1 0 -2
V_V4         VIN2 0 2
R_R6         N01366 VOUT2  10k TC=0,0 
R_R7         VIN2 N01366  3.3k TC=0,0 
R_R8         VIN1 N01352  3.3k TC=0,0 
R_R9         0 N01352  10k TC=0,0 

**** RESUMING time_sim.cir ****
.END

**** 05/18/23 21:51:18 ******* PSpice 17.4.0 (Nov 2018) ******* ID# 0 ********

 ** Profile: "SCHEMATIC1-time_sim"  [ D:\Orcad Projects\prep7_digiElecLab\prep7_analog2-pspicefiles\schematic1\time_sim.sim ] 


 ****     Diode MODEL PARAMETERS


******************************************************************************




               X_U2A.dx        X_U2A.dy        X_U2B.dx        X_U2B.dy        
          IS  800.000000E-18  800.000000E-18  800.000000E-18  800.000000E-18 
          RS    1               1.000000E-03    1               1.000000E-03 
         CJO                   10.000000E-12                   10.000000E-12 


               X_U1.x_lm741.dx X_U1.x_lm741.dy 
          IS  800.000000E-18  800.000000E-18 
          RS    1               1.000000E-03 
         CJO                   10.000000E-12 


**** 05/18/23 21:51:18 ******* PSpice 17.4.0 (Nov 2018) ******* ID# 0 ********

 ** Profile: "SCHEMATIC1-time_sim"  [ D:\Orcad Projects\prep7_digiElecLab\prep7_analog2-pspicefiles\schematic1\time_sim.sim ] 


 ****     BJT MODEL PARAMETERS


******************************************************************************




               X_U2A.qx        X_U2B.qx        X_U1.x_lm741.qx 
               PNP             PNP             NPN             
       LEVEL    1               1               1            
          IS  800.000000E-18  800.000000E-18  800.000000E-18 
          BF  166.7           166.7            93.75         
          NF    1               1               1            
          BR    1               1               1            
          NR    1               1               1            
         ISS    0               0               0            
          RE    0               0               0            
          RC    0               0               0            
         CJE    0               0               0            
         VJE     .75             .75             .75         
         CJC    0               0               0            
         VJC     .75             .75             .75         
         MJC     .33             .33             .33         
        XCJC    1               1               1            
         CJS    0               0               0            
         VJS     .75             .75             .75         
          KF    0               0               0            
          AF    1               1               1            
          CN    2.2             2.2             2.42         
           D     .52             .52             .87         


**** 05/18/23 21:51:18 ******* PSpice 17.4.0 (Nov 2018) ******* ID# 0 ********

 ** Profile: "SCHEMATIC1-time_sim"  [ D:\Orcad Projects\prep7_digiElecLab\prep7_analog2-pspicefiles\schematic1\time_sim.sim ] 


 ****     Current Controlled Switch MODEL PARAMETERS


******************************************************************************




               X_U2A.sw2       X_U2A.sw1       X_U2A.sw3       X_U2A.sw4       
         RON    1               1               1               1            
        ROFF   10.000000E+06   10.000000E+06   10.000000E+06   10.000000E+06 
         ION    0              -1.000000E-06   -1.000000E-06    0            
        IOFF   -1.000000E-06    0               0              -1.000000E-06 


               X_U2B.sw2       X_U2B.sw1       X_U2B.sw3       X_U2B.sw4       
         RON    1               1               1               1            
        ROFF   10.000000E+06   10.000000E+06   10.000000E+06   10.000000E+06 
         ION    0              -1.000000E-06   -1.000000E-06    0            
        IOFF   -1.000000E-06    0               0              -1.000000E-06 


**** 05/18/23 21:51:18 ******* PSpice 17.4.0 (Nov 2018) ******* ID# 0 ********

 ** Profile: "SCHEMATIC1-time_sim"  [ D:\Orcad Projects\prep7_digiElecLab\prep7_analog2-pspicefiles\schematic1\time_sim.sim ] 


 ****     SMALL SIGNAL BIAS SOLUTION       TEMPERATURE =   27.000 DEG C


******************************************************************************



 NODE   VOLTAGE     NODE   VOLTAGE     NODE   VOLTAGE     NODE   VOLTAGE


( +15V)   15.0000  ( -15V)  -15.0000  ( VIN1)   -2.0000  ( VIN2)    2.0000      

(VOUT1)   -8.0596  (VOUT2)  -12.1210  (N00343)-255.1E-06 (N00360)    6.0591     

(N00384)-109.9E-06 (N01352)   -1.5040 (N01366)   -1.5038 (X_U2A.6)    -.0012    

(X_U2A.7)    6.1812                   (X_U2A.8)    6.1812                       

(X_U2A.9)    0.0000                   (X_U2A.a)   14.9980                       

(X_U2A.b)    -.0024                   (X_U2B.6)     .0016                       

(X_U2B.7)   -8.1817                   (X_U2B.8)   -8.1817                       

(X_U2B.9)    0.0000                   (X_U2B.a)     .0024                       

(X_U2B.b)  -14.9980                   (X_U2A.10)     .6075                      

(X_U2A.11)  -14.9600                  (X_U2A.12)  -14.9600                      

(X_U2A.13)     .5936                  (X_U2A.14)     .5937                      

(X_U2A.53)   13.5000                  (X_U2A.54)  -14.1780                      

(X_U2A.90)    2.4421                  (X_U2A.91)   40.0000                      

(X_U2A.92)  -40.0000                  (X_U2A.99)    0.0000                      

(X_U2B.10)     .6076                  (X_U2B.11)  -14.9600                      

(X_U2B.12)  -14.9600                  (X_U2B.13)     .5937                      

(X_U2B.14)     .5938                  (X_U2B.53)   13.5000                      

(X_U2B.54)  -14.1780                  (X_U2B.90)   -2.4423                      

(X_U2B.91)   40.0000                  (X_U2B.92)  -40.0000                      

(X_U2B.99)    0.0000                  (X_U1.x_lm741.6)     .0012                

(X_U1.x_lm741.7)  -12.1740            (X_U1.x_lm741.8)  -12.1740                

(X_U1.x_lm741.9)    0.0000            (X_U1.x_lm741.10)   -2.1113               

(X_U1.x_lm741.11)   14.9610           (X_U1.x_lm741.12)   14.9610               

(X_U1.x_lm741.13)   -2.0975           (X_U1.x_lm741.14)   -2.0975               

(X_U1.x_lm741.53)   14.0000           (X_U1.x_lm741.54)  -14.0000               

(X_U1.x_lm741.90)   -1.0617           (X_U1.x_lm741.91)   40.0000               

(X_U1.x_lm741.92)  -40.0000           (X_U1.x_lm741.99)    0.0000           




    VOLTAGE SOURCE CURRENTS
    NAME         CURRENT

    V_V1        -1.075E-02
    V_V2        -1.075E-02
    V_V3         7.563E-04
    V_V4        -1.668E-03
    X_U2A.vb    -1.177E-08
    X_U2A.vc     7.442E-12
    X_U2A.ve     2.218E-11
    X_U2A.vlim   2.442E-03
    X_U2A.vlp   -3.756E-11
    X_U2A.vln   -4.245E-11
    X_U2B.vb     1.554E-08
    X_U2B.vc     2.156E-11
    X_U2B.ve     8.060E-12
    X_U2B.vlim  -2.442E-03
    X_U2B.vlp   -4.244E-11
    X_U2B.vln   -3.756E-11
    X_U1.x_lm741.vb   1.158E-08
    X_U1.x_lm741.vc   2.612E-11
    X_U1.x_lm741.ve   3.796E-12
    X_U1.x_lm741.vlim  -1.062E-03
    X_U1.x_lm741.vlp  -4.106E-11
    X_U1.x_lm741.vln  -3.894E-11

    TOTAL POWER DISSIPATION   3.27E-01  WATTS


**** 05/18/23 21:51:18 ******* PSpice 17.4.0 (Nov 2018) ******* ID# 0 ********

 ** Profile: "SCHEMATIC1-time_sim"  [ D:\Orcad Projects\prep7_digiElecLab\prep7_analog2-pspicefiles\schematic1\time_sim.sim ] 


 ****     OPERATING POINT INFORMATION      TEMPERATURE =   27.000 DEG C


******************************************************************************






**** VOLTAGE-CONTROLLED CURRENT SOURCES


NAME         X_U2A.ga    X_U2A.gcm   X_U2B.ga    X_U2B.gcm 
I-SOURCE     4.799E-08   3.622E-08   2.068E-08   3.622E-08

NAME         X_U1.x_lm741.ga         X_U1.x_lm741.gcm      
I-SOURCE    -2.416E-08              -1.259E-08            


**** VOLTAGE-CONTROLLED VOLTAGE SOURCES


NAME         X_U2A.egnd  X_U2B.egnd  X_U1.x_lm741.egnd     
V-SOURCE     0.000E+00   0.000E+00   0.000E+00            
I-SOURCE    -2.442E-03   2.442E-03   1.062E-03            


**** CURRENT-CONTROLLED CURRENT SOURCES


NAME         X_U2A.fb    X_U2A.fpos  X_U2A.fneg  X_U2B.fb    X_U2B.fpos
I-SOURCE    -2.495E-01   2.442E-03  -2.442E-03   3.295E-01  -2.442E-03

NAME         X_U2B.fneg  X_U1.x_lm741.fb       
I-SOURCE     2.442E-03   1.227E-01            


**** CURRENT-CONTROLLED VOLTAGE SOURCES


NAME         X_U2A.hlim  X_U2B.hlim  X_U1.x_lm741.hlim     
V-SOURCE     2.442E+00  -2.442E+00  -1.062E+00            
I-SOURCE    -4.885E-12   4.885E-12   2.124E-12            


**** DIODES


NAME         X_U2A.dc    X_U2A.de    X_U2A.dlp   X_U2A.dln   X_U2A.dp  
MODEL        X_U2A.dy    X_U2A.dy    X_U2A.dx    X_U2A.dx    X_U2A.dx  
ID          -7.44E-12   -2.02E-11   -3.76E-11   -4.24E-11   -3.00E-11 
VD          -7.44E+00   -2.02E+01   -3.76E+01   -4.24E+01   -3.00E+01 
REQ          1.00E+12    1.00E+12    1.00E+12    1.00E+12    1.00E+12 
CAP          3.44E-12    2.17E-12    0.00E+00    0.00E+00    0.00E+00 

NAME         X_U2B.dc    X_U2B.de    X_U2B.dlp   X_U2B.dln   X_U2B.dp  
MODEL        X_U2B.dy    X_U2B.dy    X_U2B.dx    X_U2B.dx    X_U2B.dx  
ID          -2.16E-11   -6.12E-12   -4.24E-11   -3.76E-11   -3.00E-11 
VD          -2.16E+01   -6.12E+00   -4.24E+01   -3.76E+01   -3.00E+01 
REQ          1.00E+12    1.00E+12    1.00E+12    1.00E+12    1.00E+12 
CAP          2.11E-12    3.75E-12    0.00E+00    0.00E+00    0.00E+00 

NAME         X_U1.x_lm741.dc         X_U1.x_lm741.de       
MODEL        X_U1.x_lm741.dy         X_U1.x_lm741.dy       
ID          -2.61E-11               -1.88E-12             
VD          -2.61E+01               -1.88E+00             
REQ          1.00E+12                1.00E+12             
CAP          1.92E-12                5.89E-12             

NAME         X_U1.x_lm741.dlp        X_U1.x_lm741.dln      
MODEL        X_U1.x_lm741.dx         X_U1.x_lm741.dx       
ID          -4.11E-11               -3.89E-11             
VD          -4.11E+01               -3.89E+01             
REQ          1.00E+12                1.00E+12             
CAP          0.00E+00                0.00E+00             

NAME         X_U1.x_lm741.dp       
MODEL        X_U1.x_lm741.dx       
ID          -3.00E-11             
VD          -3.00E+01             
REQ          1.00E+12             
CAP          0.00E+00             


**** BIPOLAR JUNCTION TRANSISTORS


NAME         X_U2A.q1    X_U2A.q2    X_U2B.q1    X_U2B.q2  
MODEL        X_U2A.qx    X_U2A.qx    X_U2B.qx    X_U2B.qx  
IB          -4.50E-08   -4.47E-08   -4.49E-08   -4.48E-08 
IC          -7.50E-06   -7.45E-06   -7.49E-06   -7.47E-06 
VBE         -5.94E-01   -5.94E-01   -5.94E-01   -5.94E-01 
VBC          1.50E+01    1.50E+01    1.50E+01    1.50E+01 
VCE         -1.56E+01   -1.56E+01   -1.56E+01   -1.56E+01 
BETADC       1.67E+02    1.67E+02    1.67E+02    1.67E+02 
GM           2.90E-04    2.88E-04    2.90E-04    2.89E-04 
RPI          5.75E+05    5.78E+05    5.76E+05    5.77E+05 
RX           0.00E+00    0.00E+00    0.00E+00    0.00E+00 
RO           1.00E+12    1.00E+12    1.00E+12    1.00E+12 
CBE          0.00E+00    0.00E+00    0.00E+00    0.00E+00 
CBC          0.00E+00    0.00E+00    0.00E+00    0.00E+00 
CJS          0.00E+00    0.00E+00    0.00E+00    0.00E+00 
BETAAC       1.67E+02    1.67E+02    1.67E+02    1.67E+02 
CBX/CBX2     0.00E+00    0.00E+00    0.00E+00    0.00E+00 
FT/FT2       4.62E+15    4.59E+15    4.61E+15    4.59E+15 



NAME         X_U1.x_lm741.q1         X_U1.x_lm741.q2       
MODEL        X_U1.x_lm741.qx         X_U1.x_lm741.qx       
IB           7.93E-08                7.90E-08             
IC           7.43E-06                7.41E-06             
VBE          5.94E-01                5.94E-01             
VBC         -1.65E+01               -1.65E+01             
VCE          1.71E+01                1.71E+01             
BETADC       9.38E+01                9.38E+01             
GM           2.87E-04                2.86E-04             
RPI          3.26E+05                3.27E+05             
RX           0.00E+00                0.00E+00             
RO           1.00E+12                1.00E+12             
CBE          0.00E+00                0.00E+00             
CBC          0.00E+00                0.00E+00             
CJS          0.00E+00                0.00E+00             
BETAAC       9.38E+01                9.38E+01             
CBX/CBX2     0.00E+00                0.00E+00             
FT/FT2       4.57E+15                4.56E+15             




**** CURRENT CONTROLLED SWITCHES


NAME         X_U2A.w2    X_U2A.w1    X_U2A.w3    X_U2A.w4    X_U2B.w2  
MODEL        X_U2A.sw2   X_U2A.sw1   X_U2A.sw3   X_U2A.sw4   X_U2B.sw2 
I LOAD       2.44E-03    1.50E-06   -1.50E-06   -2.44E-03    1.50E-06 
V LOAD       2.44E-03    1.50E+01   -1.50E+01   -2.44E-03    1.50E+01 
R LOAD       1.00E+00    1.00E+07    1.00E+07    1.00E+00    1.00E+07 
I CTRL       2.44E-03    2.44E-03    2.44E-03    2.44E-03   -2.44E-03 

NAME         X_U2B.w1    X_U2B.w3    X_U2B.w4  
MODEL        X_U2B.sw1   X_U2B.sw3   X_U2B.sw4 
I LOAD       2.44E-03   -2.44E-03   -1.50E-06 
V LOAD       2.44E-03   -2.44E-03   -1.50E+01 
R LOAD       1.00E+00    1.00E+00    1.00E+07 
I CTRL      -2.44E-03   -2.44E-03   -2.44E-03 

          JOB CONCLUDED

**** 05/18/23 21:51:18 ******* PSpice 17.4.0 (Nov 2018) ******* ID# 0 ********

 ** Profile: "SCHEMATIC1-time_sim"  [ D:\Orcad Projects\prep7_digiElecLab\prep7_analog2-pspicefiles\schematic1\time_sim.sim ] 


 ****     JOB STATISTICS SUMMARY


******************************************************************************



  Total job time (using Solver 1)   =         .02
