
**** 10/11/23 18:54:21 ******* PSpice 17.4.0 (Nov 2018) ******* ID# 0 ********

 ** Profile: "SCHEMATIC1-bias_check"  [ D:\Orcad Projects\fm_transmitter_v1\fm_transmitter_v1-PSpiceFiles\SCHEMATIC1\bias_check.sim ]


 ****     CIRCUIT DESCRIPTION


******************************************************************************




** Creating circuit file "bias_check.cir" 
** WARNING: THIS AUTOMATICALLY GENERATED FILE MAY BE OVERWRITTEN BY SUBSEQUENT SIMULATIONS

*Libraries: 
* Profile Libraries :
* Local Libraries :
* From [PSPICE NETLIST] section of C:\Users\sixsi\AppData\Roaming\SPB_Data\cdssetup\OrCAD_PSpice\17.4.0\PSpice.ini file:
.lib "nom.lib" 

*Analysis directives: 
.OP
.OPTIONS ADVCONV
.PROBE64 V(alias(*)) I(alias(*)) W(alias(*)) D(alias(*)) NOISE(alias(*)) 
.INC "..\SCHEMATIC1.net" 



**** INCLUDING SCHEMATIC1.net ****
* source FM_TRANSMITTER_V1
Q_Q1         N00682 N00613 N00560 Q2N3904
Q_Q2         VOUT N00689 N00759 Q2N3904
C_C1         N00432 N00613  0.1u  TC=0,0 
C_C3         N00682 N00689  0.1u  TC=0,0 
C_C4         N00689 VCC1  0.01u  TC=0,0 
C_C5         N00759 VOUT  4.7p  TC=0,0 
R_R1         N00432 VCC1  10k TC=0,0 
R_R2         0 N00560  100 TC=0,0 
R_R3         N00682 VCC1  10k TC=0,0 
R_R4         0 N00759  1k TC=0,0 
R_R5         N00689 VCC1  10k TC=0,0 
R_R6         N00613 VCC1  1meg TC=0,0 
R_R7         0 N00613  100k TC=0,0 
V_V1         VCC1 0 9V
C_C7         VOUT VCC1 {4p*0.5+.001p}
L_L1         VOUT VCC1  0.1u  
V_V2         N00432 0  AC 1k
+SIN 0 5mV 1k 0 0 0
R_RL         0 VOUT  5meg TC=0,0 
X_Q3         N02653 N02704 N02690 awbbc547 PARAMS:                             
+                
R_R8         N02704 VCC1  47k TC=0,0 
R_R9         0 N02690  1k TC=0,0 
C_C8         0 N02704  102p  TC=0,0 
C_C9         N02653 N02690  5.6p  TC=0,0 
C_C10         N02838 N02653  1n  TC=0,0 
C_C11         N02653 VCC1 {6.45p*0.5+.001p}
L_L2         N02653 VCC1  1u  
R_RL1         0 N02838  5meg TC=0,0 

**** RESUMING bias_check.cir ****
.END

**** 10/11/23 18:54:21 ******* PSpice 17.4.0 (Nov 2018) ******* ID# 0 ********

 ** Profile: "SCHEMATIC1-bias_check"  [ D:\Orcad Projects\fm_transmitter_v1\fm_transmitter_v1-PSpiceFiles\SCHEMATIC1\bias_check.sim ]


 ****     BJT MODEL PARAMETERS


******************************************************************************




               Q2N3904         X_Q3.model4     
               NPN             NPN             
       LEVEL    1               1            
          IS    6.734000E-15  185.245000E-15 
          EG                    1.206        
          BF  416.4             3.996290E+03 
          NF    1               1.09999      
         VAF   74.03            1.000000E+03 
         IKF     .06678          .064116     
         ISE    6.734000E-15   10.261300E-15 
          NE    1.259           1.25883      
          BR     .7371           .137656     
          NR    1               1.26633      
         VAR                    1.000000E+03 
         IKR                   90.230800E-06 
         ISC                    4.192580E-15 
          NC                    1.31836      
         ISS    0               0            
          RB   10              13.93         
         RBM                     .010054     
         IRB                  352.409000E-06 
          RE    0                .331933     
          RC    1                .868175     
         CJE    4.493000E-12   12.514000E-12 
         VJE     .75             .853758     
         MJE     .2593           .626769     
         CJC    3.638000E-12    6.185730E-12 
         VJC     .75             .4          
         MJC     .3085           .285328     
        XCJC    1                .944112     
         CJS    0               0            
         VJS     .75             .75         
         MJS                     .5          
          FC                     .771248     
          TF  301.200000E-12  412.484900E-12 
         XTF    2              50            
         VTF    4             119.4392       
         ITF     .4             2.5457       
          TR  239.500000E-09    9.418700E-09 
         XTB    1.5                          
         XTI                    0            
          KF    0               0            
          AF    1               1            
          CN    2.42            2.42         
           D     .87             .87         


**** 10/11/23 18:54:21 ******* PSpice 17.4.0 (Nov 2018) ******* ID# 0 ********

 ** Profile: "SCHEMATIC1-bias_check"  [ D:\Orcad Projects\fm_transmitter_v1\fm_transmitter_v1-PSpiceFiles\SCHEMATIC1\bias_check.sim ]


 ****     SMALL SIGNAL BIAS SOLUTION       TEMPERATURE =   27.000 DEG C


******************************************************************************



 NODE   VOLTAGE     NODE   VOLTAGE     NODE   VOLTAGE     NODE   VOLTAGE


( VCC1)    9.0000  ( VOUT)    9.0000  (N00432)    0.0000 (N00560)     .0220     

(N00613)     .6459 (N00682)    6.8217 (N00689)    8.5163 (N00759)    7.7949     

(N02653)    9.0000 (N02690)    7.2536 (N02704)    7.9532 (N02838)    0.0000 




    VOLTAGE SOURCE CURRENTS
    NAME         CURRENT

    V_V1        -1.618E-02
    V_V2         9.000E-04

    TOTAL POWER DISSIPATION   1.46E-01  WATTS


**** 10/11/23 18:54:21 ******* PSpice 17.4.0 (Nov 2018) ******* ID# 0 ********

 ** Profile: "SCHEMATIC1-bias_check"  [ D:\Orcad Projects\fm_transmitter_v1\fm_transmitter_v1-PSpiceFiles\SCHEMATIC1\bias_check.sim ]


 ****     OPERATING POINT INFORMATION      TEMPERATURE =   27.000 DEG C


******************************************************************************






**** BIPOLAR JUNCTION TRANSISTORS


NAME         Q_Q1        Q_Q2        X_Q3.Qbc547_0         
MODEL        Q2N3904     Q2N3904     X_Q3.model4           
IB           1.90E-06    4.84E-05    2.23E-05             
IC           2.18E-04    7.75E-03    7.23E-03             
VBE          6.24E-01    7.21E-01    7.00E-01             
VBC         -6.18E+00   -4.84E-01   -1.05E+00             
VCE          6.80E+00    1.21E+00    1.75E+00             
BETADC       1.15E+02    1.60E+02    3.25E+02             
GM           8.39E-03    2.71E-01    2.31E-01             
RPI          1.61E+04    6.06E+02    1.44E+03             
RX           1.00E+01    1.00E+01    1.24E+01             
RO           3.68E+05    9.62E+03    1.38E+05             
CBE          8.83E-12    8.86E-11    1.31E-10             
CBC          1.83E-12    3.13E-12    4.05E-12             
CJS          0.00E+00    0.00E+00    0.00E+00             
BETAAC       1.35E+02    1.65E+02    3.33E+02             
CBX/CBX2     0.00E+00    0.00E+00    2.40E-13             
FT/FT2       1.25E+08    4.71E+08    2.72E+08             



          JOB CONCLUDED

**** 10/11/23 18:54:21 ******* PSpice 17.4.0 (Nov 2018) ******* ID# 0 ********

 ** Profile: "SCHEMATIC1-bias_check"  [ D:\Orcad Projects\fm_transmitter_v1\fm_transmitter_v1-PSpiceFiles\SCHEMATIC1\bias_check.sim ]


 ****     JOB STATISTICS SUMMARY


******************************************************************************



  Total job time (using Solver 1)   =         .05
