
**** 03/31/23 18:06:15 ******* PSpice 17.4.0 (Nov 2018) ******* ID# 0 ********

 ** Profile: "SCHEMATIC1-sim2"  [ d:\orcad projects\lab_dig_elec_5\lab_dig_elec_5-PSpiceFiles\SCHEMATIC1\sim2.sim ] 


 ****     CIRCUIT DESCRIPTION


******************************************************************************




** Creating circuit file "sim2.cir" 
** WARNING: THIS AUTOMATICALLY GENERATED FILE MAY BE OVERWRITTEN BY SUBSEQUENT SIMULATIONS

*Libraries: 
* Profile Libraries :
* Local Libraries :
* From [PSPICE NETLIST] section of C:\Users\sixsi\AppData\Roaming\SPB_Data\cdssetup\OrCAD_PSpice\17.4.0\PSpice.ini file:
.lib "nom.lib" 

*Analysis directives: 
.TRAN  0 10m 0 1u 
.OPTIONS ADVCONV
.PROBE64 V(alias(*)) I(alias(*)) W(alias(*)) D(alias(*)) NOISE(alias(*)) 
.INC "..\SCHEMATIC1.net" 



**** INCLUDING SCHEMATIC1.net ****
* source LAB_DIG_ELEC_5
V_V1         +5V 0 5V
C_C4         0 N05275  10n  TC=0,0 
R_RL         0 OUT2  10k TC=0,0 
C_C3         0 CAP  0.1u  TC=0,0 
X_U3         0 CAP OUT2 +5V N05275 CAP N06887 +5V 555C
D_D1         N06887 CAP D1N4148 
D_D2         N07637 N06887 D1N4148 
R_Roff         CAP N07637  4.1k TC=0,0 
R_Ron         N06887 +5V  1.05k TC=0,0 

**** RESUMING sim2.cir ****
.END

**** 03/31/23 18:06:15 ******* PSpice 17.4.0 (Nov 2018) ******* ID# 0 ********

 ** Profile: "SCHEMATIC1-sim2"  [ d:\orcad projects\lab_dig_elec_5\lab_dig_elec_5-PSpiceFiles\SCHEMATIC1\sim2.sim ] 


 ****     Diode MODEL PARAMETERS


******************************************************************************




               D1N4148         X_U3.DIODE      
          IS    2.682000E-09   10.000000E-15 
           N    1.836                        
         ISR    1.565000E-09                 
         IKF     .04417                      
          BV  100                            
         IBV  100.000000E-06                 
          RS     .5664           .01         
          TT   11.540000E-09                 
         CJO    4.000000E-12                 
          VJ     .5                          
           M     .3333                       


**** 03/31/23 18:06:15 ******* PSpice 17.4.0 (Nov 2018) ******* ID# 0 ********

 ** Profile: "SCHEMATIC1-sim2"  [ d:\orcad projects\lab_dig_elec_5\lab_dig_elec_5-PSpiceFiles\SCHEMATIC1\sim2.sim ] 


 ****     Junction FET MODEL PARAMETERS


******************************************************************************




               X_U3.JNEMOD     
               NJF             
         VTO   -2.5          
        BETA    5.120000E-06 


**** 03/31/23 18:06:15 ******* PSpice 17.4.0 (Nov 2018) ******* ID# 0 ********

 ** Profile: "SCHEMATIC1-sim2"  [ d:\orcad projects\lab_dig_elec_5\lab_dig_elec_5-PSpiceFiles\SCHEMATIC1\sim2.sim ] 


 ****     MOSFET MODEL PARAMETERS


******************************************************************************




               X_U3.PCHAN555   X_U3.NCHAN555   
               PMOS            NMOS            
       LEVEL    1               1            
           L  100.000000E-06  100.000000E-06 
           W  100.000000E-06  100.000000E-06 
         VTO    -.2              .2          
          KP   20.000000E-06   20.000000E-06 
       GAMMA    0               0            
         PHI     .6              .6          
      LAMBDA    0               0            
          IS   10.000000E-15   10.000000E-15 
          JS    0               0            
          PB     .8              .8          
        PBSW     .8              .8          
          CJ    0               0            
        CJSW    0               0            
        CGSO    1.000000E-12    1.000000E-12 
        CGDO    1.000000E-12    1.000000E-12 
        CGBO    1.000000E-12    1.000000E-12 
         TOX    0               0            
          XJ    0               0            
       UCRIT   10.000000E+03   10.000000E+03 
      DIOMOD    1               1            
         VFB    0               0            
        LETA    0               0            
        WETA    0               0            
          U0    0               0            
        TEMP    0               0            
         VDD    5               5            
       XPART    0               0            


               X_U3.PCHAN555_OUT 
               PMOS            
       LEVEL    1            
           L  100.000000E-06 
           W  100.000000E-06 
         VTO    -.2          
          KP   20.000000E-06 
       GAMMA    0            
         PHI     .6          
      LAMBDA    0            
          IS   10.000000E-15 
          JS    0            
          PB     .8          
        PBSW     .8          
         CBD  200.000000E-12 
          CJ    0            
        CJSW    0            
        CGSO    1.000000E-12 
        CGDO    1.000000E-12 
        CGBO    1.000000E-12 
         TOX    0            
          XJ    0            
       UCRIT   10.000000E+03 
      DIOMOD    1            
         VFB    0            
        LETA    0            
        WETA    0            
          U0    0            
        TEMP    0            
         VDD    5            
       XPART    0            


Starting pseudo-transient algorithm.

**** 03/31/23 18:06:15 ******* PSpice 17.4.0 (Nov 2018) ******* ID# 0 ********

 ** Profile: "SCHEMATIC1-sim2"  [ d:\orcad projects\lab_dig_elec_5\lab_dig_elec_5-PSpiceFiles\SCHEMATIC1\sim2.sim ] 


 ****     INITIAL TRANSIENT SOLUTION       TEMPERATURE =   27.000 DEG C


******************************************************************************



 NODE   VOLTAGE     NODE   VOLTAGE     NODE   VOLTAGE     NODE   VOLTAGE


(  +5V)    5.0000  (  CAP)    3.3334  ( OUT2)     .3916  (N05275)    3.3333     

(N06887)     .1392 (N07637)     .6645 (X_U3.1)    4.0681 (X_U3.2)    1.6667     

(X_U3.3)-16.67E+03 (X_U3.4)    4.2000 (X_U3.5)    -.6683 (X_U3.6)     .3624     

(X_U3.7)    4.2000 (X_U3.8)    -.1713 (X_U3.9)    4.9920 (X_U3.10) 4.086E-06    

(X_U3.11)    4.9958                   (X_U3.12) 2.267E-06                       

(X_U3.13)    4.0681                   (X_U3.14)    5.0000                       

(X_U3.15)    1.6983                   (X_U3.16)    5.0000                       

(X_U3.17)-31.96E-09                   (X_U3.18)    5.0006                       

(X_U3.19) 106.4E-09                   (X_U3.20)     .0463                       

(X_U3.21)     .6287                   (X_U3.22)     .0427                       

(X_U3.23)     .1317                   (X_U3.24)    5.0001                       

(X_U3.25) 96.36E-12                   (X_U3.VDD)    5.0000                  




    VOLTAGE SOURCE CURRENTS
    NAME         CURRENT

    V_V1        -4.698E-03
    X_U3.V_U6_V2  -1.667E-03
    X_U3.V_U7_V2  -7.669E-12

    TOTAL POWER DISSIPATION   2.48E-02  WATTS



          JOB CONCLUDED

**** 03/31/23 18:06:15 ******* PSpice 17.4.0 (Nov 2018) ******* ID# 0 ********

 ** Profile: "SCHEMATIC1-sim2"  [ d:\orcad projects\lab_dig_elec_5\lab_dig_elec_5-PSpiceFiles\SCHEMATIC1\sim2.sim ] 


 ****     JOB STATISTICS SUMMARY


******************************************************************************



  License check-out time            =     7040.44
  Total job time (using Solver 1)   =        3.97
