
**** 03/11/23 18:32:51 ******* PSpice 17.4.0 (Nov 2018) ******* ID# 0 ********

 ** Profile: "SCHEMATIC1-BIAS"  [ d:\orcad projects\test_123\test_123-pspicefiles\schematic1\bias.sim ] 


 ****     CIRCUIT DESCRIPTION


******************************************************************************




** Creating circuit file "BIAS.cir" 
** WARNING: THIS AUTOMATICALLY GENERATED FILE MAY BE OVERWRITTEN BY SUBSEQUENT SIMULATIONS

*Libraries: 
* Profile Libraries :
* Local Libraries :
* From [PSPICE NETLIST] section of C:\Users\sixsi\AppData\Roaming\SPB_Data\cdssetup\OrCAD_PSpice\17.4.0\PSpice.ini file:
.lib "nom.lib" 

*Analysis directives: 
.OP
.OPTIONS ADVCONV
.PROBE64 V(alias(*)) I(alias(*)) W(alias(*)) D(alias(*)) NOISE(alias(*)) 
.INC "..\SCHEMATIC1.net" 



**** INCLUDING SCHEMATIC1.net ****
* source TEST_123
V_V1         N01839 0 20V
R_Rs         0 N01855  150 TC=0,0 
R_Rd         N01851 N01839  2k TC=0,0 
R_Rb         0 N01859  1Meg TC=0,0 
J_J1         N01851 N01859 N01855 J2N3819 

**** RESUMING BIAS.cir ****
.END

**** 03/11/23 18:32:51 ******* PSpice 17.4.0 (Nov 2018) ******* ID# 0 ********

 ** Profile: "SCHEMATIC1-BIAS"  [ d:\orcad projects\test_123\test_123-pspicefiles\schematic1\bias.sim ] 


 ****     Junction FET MODEL PARAMETERS


******************************************************************************




               J2N3819         
               NJF             
         VTO   -3            
        BETA    1.304000E-03 
      LAMBDA    2.250000E-03 
          IS   33.570000E-15 
         ISR  322.400000E-15 
       ALPHA  311.700000E-06 
          VK  243.6          
          RD    1            
          RS    1            
         CGD    1.600000E-12 
         CGS    2.414000E-12 
           M     .3622       
       VTOTC   -2.500000E-03 
     BETATCE    -.5          
          KF    9.882000E-18 


**** 03/11/23 18:32:51 ******* PSpice 17.4.0 (Nov 2018) ******* ID# 0 ********

 ** Profile: "SCHEMATIC1-BIAS"  [ d:\orcad projects\test_123\test_123-pspicefiles\schematic1\bias.sim ] 


 ****     SMALL SIGNAL BIAS SOLUTION       TEMPERATURE =   27.000 DEG C


******************************************************************************



 NODE   VOLTAGE     NODE   VOLTAGE     NODE   VOLTAGE     NODE   VOLTAGE


(N01839)   20.0000 (N01851)    8.2044 (N01855)     .8847 (N01859) 1.194E-06 




    VOLTAGE SOURCE CURRENTS
    NAME         CURRENT

    V_V1        -5.898E-03

    TOTAL POWER DISSIPATION   1.18E-01  WATTS


**** 03/11/23 18:32:51 ******* PSpice 17.4.0 (Nov 2018) ******* ID# 0 ********

 ** Profile: "SCHEMATIC1-BIAS"  [ d:\orcad projects\test_123\test_123-pspicefiles\schematic1\bias.sim ] 


 ****     OPERATING POINT INFORMATION      TEMPERATURE =   27.000 DEG C


******************************************************************************






**** JFETS


NAME         J_J1      
MODEL        J2N3819   
ID           5.90E-03 
VGS         -8.85E-01 
VDS          7.32E+00 
GM           5.59E-03 
GDS          1.31E-05 
CGS          1.92E-12 
CGD          7.16E-13 

          JOB CONCLUDED

**** 03/11/23 18:32:51 ******* PSpice 17.4.0 (Nov 2018) ******* ID# 0 ********

 ** Profile: "SCHEMATIC1-BIAS"  [ d:\orcad projects\test_123\test_123-pspicefiles\schematic1\bias.sim ] 


 ****     JOB STATISTICS SUMMARY


******************************************************************************



  Total job time (using Solver 1)   =         .05
