
**** 05/08/23 11:07:32 ******* PSpice 17.4.0 (Nov 2018) ******* ID# 0 ********

 ** Profile: "SCHEMATIC2-frqsweep"  [ C:\Cadence\My projects\prep5_analog2_lab-PSpiceFiles\SCHEMATIC2\frqsweep.sim ] 


 ****     CIRCUIT DESCRIPTION


******************************************************************************




** Creating circuit file "frqsweep.cir" 
** WARNING: THIS AUTOMATICALLY GENERATED FILE MAY BE OVERWRITTEN BY SUBSEQUENT SIMULATIONS

*Libraries: 
* Profile Libraries :
* Local Libraries :
* From [PSPICE NETLIST] section of C:\Users\sixsi\AppData\Roaming\SPB_Data\cdssetup\OrCAD_PSpice\17.4.0\PSpice.ini file:
.lib "nom.lib" 

*Analysis directives: 
.AC DEC 1000 50 1Meg
.OPTIONS ADVCONV
.PROBE64 V(alias(*)) I(alias(*)) W(alias(*)) D(alias(*)) NOISE(alias(*)) 
.INC "..\SCHEMATIC2.net" 



**** INCLUDING SCHEMATIC2.net ****
* source PREP5_ANALOG2_LAB
X_U1         VIN- N05660 VP VN N05776 uA741
V_V2         GND VN 15V
R_R1         N05776 N05674  1Meg TC=0,0 
X_U2         0 N05674 VP VN VOUT uA741
R_R2         N05674 VOUT  10k TC=0,0 
R_R6         N05660 N05668  1k TC=0,0 
R_R3         N05660 N05776  19k TC=0,0 
V_V3         VIN- 0 DC 0Vdc AC 0.5Vac 
X_R5         N05674 N05674 N05668 POT PARAMS: SET={pot_sweep} VALUE=1Meg
V_V1         VP GND 15V
.PARAM  pot_sweep=0

**** RESUMING frqsweep.cir ****
.END

**** 05/08/23 11:07:32 ******* PSpice 17.4.0 (Nov 2018) ******* ID# 0 ********

 ** Profile: "SCHEMATIC2-frqsweep"  [ C:\Cadence\My projects\prep5_analog2_lab-PSpiceFiles\SCHEMATIC2\frqsweep.sim ] 


 ****     Diode MODEL PARAMETERS


******************************************************************************




               X_U1.dx         X_U1.dy         X_U2.dx         X_U2.dy         
          IS  800.000000E-18  800.000000E-18  800.000000E-18  800.000000E-18 
          RS    1               1.000000E-03    1               1.000000E-03 
         CJO                   10.000000E-12                   10.000000E-12 


**** 05/08/23 11:07:32 ******* PSpice 17.4.0 (Nov 2018) ******* ID# 0 ********

 ** Profile: "SCHEMATIC2-frqsweep"  [ C:\Cadence\My projects\prep5_analog2_lab-PSpiceFiles\SCHEMATIC2\frqsweep.sim ] 


 ****     BJT MODEL PARAMETERS


******************************************************************************




               X_U1.qx         X_U2.qx         
               NPN             NPN             
       LEVEL    1               1            
          IS  800.000000E-18  800.000000E-18 
          BF   93.75           93.75         
          NF    1               1            
          BR    1               1            
          NR    1               1            
         ISS    0               0            
          RE    0               0            
          RC    0               0            
         CJE    0               0            
         VJE     .75             .75         
         CJC    0               0            
         VJC     .75             .75         
         MJC     .33             .33         
        XCJC    1               1            
         CJS    0               0            
         VJS     .75             .75         
          KF    0               0            
          AF    1               1            
          CN    2.42            2.42         
           D     .87             .87         


**** 05/08/23 11:07:32 ******* PSpice 17.4.0 (Nov 2018) ******* ID# 0 ********

 ** Profile: "SCHEMATIC2-frqsweep"  [ C:\Cadence\My projects\prep5_analog2_lab-PSpiceFiles\SCHEMATIC2\frqsweep.sim ] 


 ****     SMALL SIGNAL BIAS SOLUTION       TEMPERATURE =   27.000 DEG C


******************************************************************************



 NODE   VOLTAGE     NODE   VOLTAGE     NODE   VOLTAGE     NODE   VOLTAGE


(   VN)  -17.7410  (   VP)   12.2590  (  GND)   -2.7409  ( VIN-)    0.0000      

( VOUT) 711.7E-06  (N05660)-80.59E-06 (N05668)-80.58E-06 (N05674)-80.58E-06     

(N05776)     .0015 (X_U1.6)-258.5E-06 (X_U1.7)     .0015 (X_U1.8)     .0015     

(X_U1.9)    0.0000 (X_U2.6)-258.4E-06 (X_U2.7) 715.7E-06 (X_U2.8) 715.7E-06     

(X_U2.9)    0.0000 (X_U1.10)    -.6083                   (X_U1.11)   12.2190    

(X_U1.12)   12.2190                   (X_U1.13)    -.5942                       

(X_U1.14)    -.5942                   (X_U1.53)   11.2590                       

(X_U1.54)  -16.7410                   (X_U1.90) 82.30E-06                       

(X_U1.91)   40.0000                   (X_U1.92)  -40.0000                       

(X_U1.99)   -2.7409                   (X_U2.10)    -.6083                       

(X_U2.11)   12.2190                   (X_U2.12)   12.2190                       

(X_U2.13)    -.5942                   (X_U2.14)    -.5942                       

(X_U2.53)   11.2590                   (X_U2.54)  -16.7410                       

(X_U2.90) 79.23E-06                   (X_U2.91)   40.0000                       

(X_U2.92)  -40.0000                   (X_U2.99)   -2.7409                   




    VOLTAGE SOURCE CURRENTS
    NAME         CURRENT

    V_V2        -3.334E-03
    V_V3        -8.092E-08
    V_V1        -3.334E-03
    X_U1.vb     -2.585E-09
    X_U1.vc      1.126E-11
    X_U1.ve      1.903E-11
    X_U1.vlim    8.230E-08
    X_U1.vlp    -4.000E-11
    X_U1.vln    -4.000E-11
    X_U2.vb     -2.584E-09
    X_U2.vc      1.126E-11
    X_U2.ve      1.903E-11
    X_U2.vlim    7.923E-08
    X_U2.vlp    -4.000E-11
    X_U2.vln    -4.000E-11

    TOTAL POWER DISSIPATION   1.00E-01  WATTS



          JOB CONCLUDED

**** 05/08/23 11:07:32 ******* PSpice 17.4.0 (Nov 2018) ******* ID# 0 ********

 ** Profile: "SCHEMATIC2-frqsweep"  [ C:\Cadence\My projects\prep5_analog2_lab-PSpiceFiles\SCHEMATIC2\frqsweep.sim ] 


 ****     JOB STATISTICS SUMMARY


******************************************************************************



  Total job time (using Solver 1)   =         .27
